  can0  TX - -  18DA30F1   [8]  02 10 03 00 00 00 00 00   '........'
  can0  TX - -  18DA30F1   [8]  02 10 03 00 00 00 00 00   '........'
  can0  TX - -  18DA30F1   [8]  02 10 03 00 00 00 00 00   '........'
  can0  TX - -  18DA30F1   [8]  02 10 03 00 00 00 00 00   '........'
  can0  TX - -  18DA30F1   [8]  02 10 03 00 00 00 00 00   '........'
  can0  RX - -  18DAF130   [7]  06 50 03 00 32 01 F4      '.P..2..'
  can0  TX - -  18DA30F1   [8]  02 10 03 00 00 00 00 00   '........'
  can0  TX - -  18DA28F1   [8]  03 22 08 00 00 00 00 00   '."......'
  can0  TX - -  18DA28F1   [8]  03 22 08 00 00 00 00 00   '."......'
  can0  TX - -  18DA28F1   [8]  03 22 08 00 00 00 00 00   '."......'
  can0  TX - -  18DA28F1   [8]  03 22 08 00 00 00 00 00   '."......'
  can0  TX - -  18DA28F1   [8]  03 22 08 00 00 00 00 00   '."......'
  can0  RX - -  18DAF130   [7]  06 50 03 00 32 01 F4      '.P..2..'
  can0  TX - -  18DA28F1   [8]  03 22 08 00 00 00 00 00   '."......'
  can0  TX - -  18DA28F1   [8]  03 22 08 00 00 00 00 00   '."......'
  can0  TX - -  18DA28F1   [8]  03 22 08 00 00 00 00 00   '."......'
  can0  RX - -  18DAF128   [8]  03 7F 22 31 00 00 00 00   '.."1....'
  can0  TX - -  18DA28F1   [8]  03 22 08 00 00 00 00 00   '."......'
  can0  TX - -  18DA28F1   [8]  03 22 08 00 00 00 00 00   '."......'
  can0  TX - -  18DA28F1   [8]  03 22 08 00 00 00 00 00   '."......'
  can0  TX - -  18DA28F1   [8]  30 00 00 00 00 00 00 00   '0.......'
  can0  RX - -  18DAF128   [8]  03 7F 22 31 00 00 00 00   '.."1....'
  can0  TX - -  18DA30F1   [8]  02 10 03 00 00 00 00 00   '........'
  can0  TX - -  18DA30F1   [8]  02 10 03 00 00 00 00 00   '........'
  can0  TX - -  18DA30F1   [8]  02 10 03 00 00 00 00 00   '........'
  can0  TX - -  18DA30F1   [8]  02 10 03 00 00 00 00 00   '........'
  can0  RX - -  18DAF130   [7]  06 50 03 00 32 01 F4      '.P..2..'
  can0  TX - -  18DA30F1   [8]  02 10 03 00 00 00 00 00   '........'
  can0  TX - -  18DA30F1   [8]  02 10 03 00 00 00 00 00   '........'
  can0  TX - -  18DA30F1   [8]  02 10 03 00 00 00 00 00   '........'
  can0  TX - -  18DA28F1   [8]  03 22 08 00 00 00 00 00   '."......'
  can0  TX - -  18DA28F1   [8]  03 22 08 00 00 00 00 00   '."......'
  can0  TX - -  18DA28F1   [8]  03 22 08 00 00 00 00 00   '."......'
  can0  TX - -  18DA28F1   [8]  03 22 08 00 00 00 00 00   '."......'
  can0  RX - -  18DAF130   [7]  06 50 03 00 32 01 F4      '.P..2..'
  can0  TX - -  18DA28F1   [8]  03 22 08 00 00 00 00 00   '."......'
  can0  TX - -  18DA28F1   [8]  03 22 08 00 00 00 00 00   '."......'
  can0  TX - -  18DA28F1   [8]  03 22 08 00 00 00 00 00   '."......'
  can0  TX - -  18DA28F1   [8]  03 22 08 00 00 00 00 00   '."......'
  can0  RX - -  18DAF128   [8]  03 7F 22 31 00 00 00 00   '.."1....'
  can0  TX - -  18DA28F1   [8]  03 22 08 00 00 00 00 00   '."......'
  can0  TX - -  18DA28F1   [8]  03 22 08 00 00 00 00 00   '."......'
  can0  TX - -  18DA28F1   [8]  03 22 08 00 00 00 00 00   '."......'
  can0  TX - -  18DA28F1   [8]  03 22 08 00 00 00 00 00   '."......'
  can0  TX - -  18DA28F1   [8]  03 22 08 00 00 00 00 00   '."......'
  can0  TX - -  18DA28F1   [8]  03 22 08 00 00 00 00 00   '."......'
  can0  TX - -  18DA28F1   [8]  30 00 00 00 00 00 00 00   '0.......'
  can0  RX - -  18DAF128   [8]  03 7F 22 31 00 00 00 00   '.."1....'
  can0  TX - -  18DA28F1   [8]  03 22 08 01 00 00 00 00   '."......'
  can0  TX - -  18DA28F1   [8]  03 22 08 01 00 00 00 00   '."......'
  can0  TX - -  18DA28F1   [8]  03 22 08 01 00 00 00 00   '."......'
  can0  TX - -  18DA28F1   [8]  03 22 08 01 00 00 00 00   '."......'
  can0  TX - -  18DA28F1   [8]  03 22 08 01 00 00 00 00   '."......'
  can0  TX - -  18DA28F1   [8]  03 22 08 01 00 00 00 00   '."......'
  can0  TX - -  18DA28F1   [8]  03 22 08 01 00 00 00 00   '."......'
  can0  TX - -  18DA28F1   [8]  03 22 08 01 00 00 00 00   '."......'
  can0  TX - -  18DA28F1   [8]  30 00 00 00 00 00 00 00   '0.......'
  can0  RX - -  18DAF128   [8]  03 7F 22 31 00 00 00 00   '.."1....'
  can0  TX - -  18DA28F1   [8]  03 22 08 02 00 00 00 00   '."......'
  can0  TX - -  18DA28F1   [8]  03 22 08 02 00 00 00 00   '."......'
  can0  TX - -  18DA28F1   [8]  03 22 08 02 00 00 00 00   '."......'
  can0  TX - -  18DA28F1   [8]  03 22 08 02 00 00 00 00   '."......'
  can0  TX - -  18DA28F1   [8]  03 22 08 02 00 00 00 00   '."......'
  can0  TX - -  18DA28F1   [8]  03 22 08 02 00 00 00 00   '."......'
  can0  TX - -  18DA28F1   [8]  03 22 08 02 00 00 00 00   '."......'
  can0  TX - -  18DA28F1   [8]  03 22 08 02 00 00 00 00   '."......'
  can0  TX - -  18DA28F1   [8]  03 22 08 02 00 00 00 00   '."......'
  can0  TX - -  18DA28F1   [8]  03 22 08 02 00 00 00 00   '."......'
  can0  TX - -  18DA28F1   [8]  03 22 08 02 00 00 00 00   '."......'
  can0  TX - -  18DA28F1   [8]  03 22 08 02 00 00 00 00   '."......'
  can0  TX - -  18DA28F1   [8]  03 22 08 02 00 00 00 00   '."......'
  can0  TX - -  18DA28F1   [8]  03 22 08 02 00 00 00 00   '."......'
  can0  TX - -  18DA28F1   [8]  03 22 08 02 00 00 00 00   '."......'
  can0  TX - -  18DA28F1   [8]  03 22 08 02 00 00 00 00   '."......'
  can0  TX - -  18DA28F1   [8]  03 22 08 02 00 00 00 00   '."......'
  can0  TX - -  18DA28F1   [8]  03 22 08 02 00 00 00 00   '."......'
  can0  TX - -  18DA28F1   [8]  03 22 08 02 00 00 00 00   '."......'
  can0  TX - -  18DA28F1   [8]  03 22 08 02 00 00 00 00   '."......'
  can0  RX - -  18DAF128   [8]  03 7F 22 31 00 00 00 00   '.."1....'
  can0  TX - -  18DA28F1   [8]  03 22 08 02 00 00 00 00   '."......'
  can0  TX - -  18DA28F1   [8]  03 22 08 02 00 00 00 00   '."......'
  can0  TX - -  18DA28F1   [8]  03 22 08 02 00 00 00 00   '."......'
  can0  TX - -  18DA28F1   [8]  03 22 08 02 00 00 00 00   '."......'
  can0  TX - -  18DA28F1   [8]  03 22 08 02 00 00 00 00   '."......'
  can0  TX - -  18DA28F1   [8]  03 22 08 02 00 00 00 00   '."......'
  can0  TX - -  18DA28F1   [8]  03 22 08 02 00 00 00 00   '."......'
  can0  TX - -  18DA28F1   [8]  03 22 08 02 00 00 00 00   '."......'
  can0  TX - -  18DA28F1   [8]  03 22 08 02 00 00 00 00   '."......'
  can0  TX - -  18DA28F1   [8]  03 22 08 02 00 00 00 00   '."......'
  can0  TX - -  18DA28F1   [8]  03 22 08 02 00 00 00 00   '."......'
  can0  TX - -  18DA28F1   [8]  03 22 08 02 00 00 00 00   '."......'
  can0  TX - -  18DA28F1   [8]  03 22 08 02 00 00 00 00   '."......'
  can0  TX - -  18DA28F1   [8]  03 22 08 02 00 00 00 00   '."......'
  can0  TX - -  18DA28F1   [8]  03 22 08 02 00 00 00 00   '."......'
  can0  TX - -  18DA28F1   [8]  03 22 08 02 00 00 00 00   '."......'
  can0  TX - -  18DA28F1   [8]  03 22 08 02 00 00 00 00   '."......'
  can0  TX - -  18DA28F1   [8]  03 22 08 02 00 00 00 00   '."......'
  can0  TX - -  18DA28F1   [8]  03 22 08 02 00 00 00 00   '."......'
  can0  TX - -  18DA28F1   [8]  03 22 08 02 00 00 00 00   '."......'
  can0  RX - -  18DAF128   [8]  03 7F 22 31 00 00 00 00   '.."1....'
  can0  TX - -  18DA28F1   [8]  03 22 08 02 00 00 00 00   '."......'
  can0  TX - -  18DA28F1   [8]  03 22 08 02 00 00 00 00   '."......'
  can0  TX - -  18DA28F1   [8]  03 22 08 02 00 00 00 00   '."......'
  can0  TX - -  18DA28F1   [8]  03 22 08 02 00 00 00 00   '."......'
  can0  TX - -  18DA28F1   [8]  03 22 08 02 00 00 00 00   '."......'
  can0  TX - -  18DA28F1   [8]  03 22 08 02 00 00 00 00   '."......'
  can0  TX - -  18DA28F1   [8]  03 22 08 02 00 00 00 00   '."......'
  can0  TX - -  18DA28F1   [8]  03 22 08 02 00 00 00 00   '."......'
  can0  TX - -  18DA28F1   [8]  03 22 08 02 00 00 00 00   '."......'
  can0  TX - -  18DA28F1   [8]  03 22 08 02 00 00 00 00   '."......'
  can0  TX - -  18DA28F1   [8]  03 22 08 02 00 00 00 00   '."......'
  can0  TX - -  18DA28F1   [8]  03 22 08 02 00 00 00 00   '."......'
  can0  TX - -  18DA28F1   [8]  03 22 08 02 00 00 00 00   '."......'
  can0  TX - -  18DA28F1   [8]  03 22 08 02 00 00 00 00   '."......'
  can0  TX - -  18DA28F1   [8]  03 22 08 02 00 00 00 00   '."......'
  can0  TX - -  18DA28F1   [8]  03 22 08 02 00 00 00 00   '."......'
  can0  TX - -  18DA28F1   [8]  03 22 08 02 00 00 00 00   '."......'
  can0  TX - -  18DA28F1   [8]  03 22 08 02 00 00 00 00   '."......'
  can0  RX - -  18DAF128   [8]  03 7F 22 31 00 00 00 00   '.."1....'
  can0  TX - -  18DA28F1   [8]  03 22 08 02 00 00 00 00   '."......'
  can0  TX - -  18DA28F1   [8]  03 22 08 02 00 00 00 00   '."......'
  can0  TX - -  18DA28F1   [8]  03 22 08 02 00 00 00 00   '."......'
  can0  TX - -  18DA28F1   [8]  03 22 08 02 00 00 00 00   '."......'
  can0  TX - -  18DA28F1   [8]  03 22 08 02 00 00 00 00   '."......'
  can0  TX - -  18DA28F1   [8]  03 22 08 02 00 00 00 00   '."......'
  can0  TX - -  18DA28F1   [8]  03 22 08 02 00 00 00 00   '."......'
  can0  TX - -  18DA28F1   [8]  03 22 08 02 00 00 00 00   '."......'
  can0  TX - -  18DA28F1   [8]  03 22 08 02 00 00 00 00   '."......'
  can0  TX - -  18DA28F1   [8]  03 22 08 02 00 00 00 00   '."......'
  can0  TX - -  18DA28F1   [8]  03 22 08 02 00 00 00 00   '."......'
  can0  TX - -  18DA28F1   [8]  03 22 08 02 00 00 00 00   '."......'
  can0  TX - -  18DA28F1   [8]  03 22 08 02 00 00 00 00   '."......'
  can0  TX - -  18DA28F1   [8]  03 22 08 02 00 00 00 00   '."......'
  can0  TX - -  18DA28F1   [8]  03 22 08 02 00 00 00 00   '."......'
  can0  TX - -  18DA28F1   [8]  03 22 08 02 00 00 00 00   '."......'
  can0  TX - -  18DA28F1   [8]  03 22 08 02 00 00 00 00   '."......'
  can0  TX - -  18DA28F1   [8]  03 22 08 02 00 00 00 00   '."......'
  can0  TX - -  18DA28F1   [8]  03 22 08 02 00 00 00 00   '."......'
  can0  RX - -  18DAF128   [8]  03 7F 22 31 00 00 00 00   '.."1....'
  can0  TX - -  18DA28F1   [8]  03 22 08 02 00 00 00 00   '."......'
  can0  TX - -  18DA28F1   [8]  03 22 08 02 00 00 00 00   '."......'
  can0  TX - -  18DA28F1   [8]  03 22 08 02 00 00 00 00   '."......'
  can0  TX - -  18DA28F1   [8]  03 22 08 02 00 00 00 00   '."......'
  can0  TX - -  18DA28F1   [8]  03 22 08 02 00 00 00 00   '."......'
  can0  TX - -  18DA28F1   [8]  03 22 08 02 00 00 00 00   '."......'
  can0  TX - -  18DA28F1   [8]  03 22 08 02 00 00 00 00   '."......'
  can0  TX - -  18DA28F1   [8]  03 22 08 02 00 00 00 00   '."......'
  can0  TX - -  18DA28F1   [8]  03 22 08 02 00 00 00 00   '."......'
  can0  TX - -  18DA28F1   [8]  03 22 08 02 00 00 00 00   '."......'
  can0  TX - -  18DA28F1   [8]  03 22 08 02 00 00 00 00   '."......'
  can0  TX - -  18DA28F1   [8]  03 22 08 02 00 00 00 00   '."......'
  can0  TX - -  18DA28F1   [8]  03 22 08 02 00 00 00 00   '."......'
  can0  TX - -  18DA28F1   [8]  03 22 08 02 00 00 00 00   '."......'
  can0  TX - -  18DA28F1   [8]  03 22 08 02 00 00 00 00   '."......'
  can0  TX - -  18DA28F1   [8]  03 22 08 02 00 00 00 00   '."......'
  can0  TX - -  18DA28F1   [8]  03 22 08 02 00 00 00 00   '."......'
  can0  TX - -  18DA28F1   [8]  03 22 08 02 00 00 00 00   '."......'
  can0  TX - -  18DA28F1   [8]  03 22 08 02 00 00 00 00   '."......'
  can0  TX - -  18DA28F1   [8]  03 22 08 02 00 00 00 00   '."......'
  can0  TX - -  18DA28F1   [8]  03 22 08 02 00 00 00 00   '."......'
  can0  TX - -  18DA28F1   [8]  03 22 08 02 00 00 00 00   '."......'
  can0  TX - -  18DA28F1   [8]  03 22 08 02 00 00 00 00   '."......'
  can0  RX - -  18DAF128   [8]  03 7F 22 31 00 00 00 00   '.."1....'
  can0  TX - -  18DA28F1   [8]  03 22 08 02 00 00 00 00   '."......'
  can0  TX - -  18DA28F1   [8]  03 22 08 02 00 00 00 00   '."......'
  can0  TX - -  18DA28F1   [8]  03 22 08 02 00 00 00 00   '."......'
  can0  TX - -  18DA28F1   [8]  03 22 08 02 00 00 00 00   '."......'
  can0  TX - -  18DA28F1   [8]  03 22 08 02 00 00 00 00   '."......'
  can0  TX - -  18DA28F1   [8]  03 22 08 02 00 00 00 00   '."......'
  can0  TX - -  18DA28F1   [8]  03 22 08 02 00 00 00 00   '."......'
  can0  TX - -  18DA28F1   [8]  03 22 08 02 00 00 00 00   '."......'
  can0  TX - -  18DA28F1   [8]  03 22 08 02 00 00 00 00   '."......'
  can0  TX - -  18DA28F1   [8]  03 22 08 02 00 00 00 00   '."......'
  can0  TX - -  18DA28F1   [8]  03 22 08 02 00 00 00 00   '."......'
  can0  TX - -  18DA28F1   [8]  03 22 08 02 00 00 00 00   '."......'
  can0  TX - -  18DA28F1   [8]  03 22 08 02 00 00 00 00   '."......'
  can0  TX - -  18DA28F1   [8]  03 22 08 02 00 00 00 00   '."......'
  can0  TX - -  18DA28F1   [8]  03 22 08 02 00 00 00 00   '."......'
  can0  TX - -  18DA28F1   [8]  03 22 08 02 00 00 00 00   '."......'
  can0  TX - -  18DA28F1   [8]  03 22 08 02 00 00 00 00   '."......'
  can0  TX - -  18DA28F1   [8]  03 22 08 02 00 00 00 00   '."......'
  can0  TX - -  18DA28F1   [8]  03 22 08 02 00 00 00 00   '."......'
  can0  TX - -  18DA28F1   [8]  03 22 08 02 00 00 00 00   '."......'
  can0  RX - -  18DAF128   [8]  03 7F 22 31 00 00 00 00   '.."1....'
  can0  TX - -  18DA28F1   [8]  03 22 08 02 00 00 00 00   '."......'
  can0  TX - -  18DA28F1   [8]  03 22 08 02 00 00 00 00   '."......'
  can0  TX - -  18DA28F1   [8]  03 22 08 02 00 00 00 00   '."......'
  can0  TX - -  18DA28F1   [8]  03 22 08 02 00 00 00 00   '."......'
  can0  TX - -  18DA28F1   [8]  03 22 08 02 00 00 00 00   '."......'
  can0  TX - -  18DA28F1   [8]  03 22 08 02 00 00 00 00   '."......'
  can0  TX - -  18DA28F1   [8]  03 22 08 02 00 00 00 00   '."......'
  can0  TX - -  18DA28F1   [8]  03 22 08 02 00 00 00 00   '."......'
  can0  TX - -  18DA28F1   [8]  03 22 08 02 00 00 00 00   '."......'
  can0  TX - -  18DA28F1   [8]  03 22 08 02 00 00 00 00   '."......'
  can0  TX - -  18DA28F1   [8]  03 22 08 02 00 00 00 00   '."......'
  can0  TX - -  18DA28F1   [8]  03 22 08 02 00 00 00 00   '."......'
  can0  TX - -  18DA28F1   [8]  03 22 08 02 00 00 00 00   '."......'
  can0  TX - -  18DA28F1   [8]  03 22 08 02 00 00 00 00   '."......'
  can0  TX - -  18DA28F1   [8]  03 22 08 02 00 00 00 00   '."......'
  can0  TX - -  18DA28F1   [8]  03 22 08 02 00 00 00 00   '."......'
  can0  TX - -  18DA28F1   [8]  03 22 08 02 00 00 00 00   '."......'
  can0  TX - -  18DA28F1   [8]  03 22 08 02 00 00 00 00   '."......'
  can0  TX - -  18DA28F1   [8]  03 22 08 02 00 00 00 00   '."......'
  can0  RX - -  18DAF128   [8]  03 7F 22 31 00 00 00 00   '.."1....'
  can0  TX - -  18DA28F1   [8]  03 22 08 02 00 00 00 00   '."......'
  can0  TX - -  18DA28F1   [8]  03 22 08 02 00 00 00 00   '."......'
  can0  TX - -  18DA28F1   [8]  03 22 08 02 00 00 00 00   '."......'
  can0  TX - -  18DA28F1   [8]  03 22 08 02 00 00 00 00   '."......'
  can0  TX - -  18DA28F1   [8]  03 22 08 02 00 00 00 00   '."......'
  can0  TX - -  18DA28F1   [8]  03 22 08 02 00 00 00 00   '."......'
  can0  TX - -  18DA28F1   [8]  03 22 08 02 00 00 00 00   '."......'
  can0  TX - -  18DA28F1   [8]  03 22 08 02 00 00 00 00   '."......'
  can0  TX - -  18DA28F1   [8]  03 22 08 02 00 00 00 00   '."......'
  can0  TX - -  18DA28F1   [8]  03 22 08 02 00 00 00 00   '."......'
  can0  TX - -  18DA28F1   [8]  03 22 08 02 00 00 00 00   '."......'
  can0  TX - -  18DA28F1   [8]  03 22 08 02 00 00 00 00   '."......'
  can0  TX - -  18DA28F1   [8]  03 22 08 02 00 00 00 00   '."......'
  can0  TX - -  18DA28F1   [8]  03 22 08 02 00 00 00 00   '."......'
  can0  TX - -  18DA28F1   [8]  03 22 08 02 00 00 00 00   '."......'
  can0  TX - -  18DA28F1   [8]  03 22 08 02 00 00 00 00   '."......'
  can0  TX - -  18DA28F1   [8]  03 22 08 02 00 00 00 00   '."......'
  can0  TX - -  18DA28F1   [8]  03 22 08 02 00 00 00 00   '."......'
  can0  TX - -  18DA28F1   [8]  03 22 08 02 00 00 00 00   '."......'
  can0  TX - -  18DA28F1   [8]  03 22 08 02 00 00 00 00   '."......'
  can0  RX - -  18DAF128   [8]  03 7F 22 31 00 00 00 00   '.."1....'
  can0  TX - -  18DA28F1   [8]  03 22 08 02 00 00 00 00   '."......'
  can0  TX - -  18DA28F1   [8]  03 22 08 02 00 00 00 00   '."......'
  can0  TX - -  18DA28F1   [8]  03 22 08 02 00 00 00 00   '."......'
  can0  TX - -  18DA28F1   [8]  03 22 08 02 00 00 00 00   '."......'
  can0  TX - -  18DA28F1   [8]  03 22 08 02 00 00 00 00   '."......'
  can0  TX - -  18DA28F1   [8]  03 22 08 02 00 00 00 00   '."......'
  can0  TX - -  18DA28F1   [8]  03 22 08 02 00 00 00 00   '."......'
  can0  TX - -  18DA28F1   [8]  03 22 08 02 00 00 00 00   '."......'
  can0  TX - -  18DA28F1   [8]  03 22 08 02 00 00 00 00   '."......'
  can0  TX - -  18DA28F1   [8]  03 22 08 02 00 00 00 00   '."......'
  can0  TX - -  18DA28F1   [8]  03 22 08 02 00 00 00 00   '."......'
  can0  TX - -  18DA28F1   [8]  03 22 08 02 00 00 00 00   '."......'
  can0  TX - -  18DA28F1   [8]  03 22 08 02 00 00 00 00   '."......'
  can0  TX - -  18DA28F1   [8]  03 22 08 02 00 00 00 00   '."......'
  can0  TX - -  18DA28F1   [8]  03 22 08 02 00 00 00 00   '."......'
  can0  TX - -  18DA28F1   [8]  03 22 08 02 00 00 00 00   '."......'
  can0  TX - -  18DA28F1   [8]  03 22 08 02 00 00 00 00   '."......'
  can0  TX - -  18DA28F1   [8]  03 22 08 02 00 00 00 00   '."......'
  can0  RX - -  18DAF128   [8]  03 7F 22 31 00 00 00 00   '.."1....'
  can0  TX - -  18DA28F1   [8]  03 22 08 02 00 00 00 00   '."......'
  can0  TX - -  18DA28F1   [8]  03 22 08 02 00 00 00 00   '."......'
  can0  TX - -  18DA28F1   [8]  03 22 08 02 00 00 00 00   '."......'
  can0  TX - -  18DA28F1   [8]  03 22 08 02 00 00 00 00   '."......'
  can0  TX - -  18DA28F1   [8]  03 22 08 02 00 00 00 00   '."......'
  can0  TX - -  18DA28F1   [8]  03 22 08 02 00 00 00 00   '."......'
  can0  TX - -  18DA28F1   [8]  03 22 08 02 00 00 00 00   '."......'
  can0  TX - -  18DA28F1   [8]  03 22 08 02 00 00 00 00   '."......'
  can0  TX - -  18DA28F1   [8]  03 22 08 02 00 00 00 00   '."......'
  can0  TX - -  18DA28F1   [8]  03 22 08 02 00 00 00 00   '."......'
  can0  TX - -  18DA28F1   [8]  03 22 08 02 00 00 00 00   '."......'
  can0  TX - -  18DA28F1   [8]  03 22 08 02 00 00 00 00   '."......'
  can0  TX - -  18DA28F1   [8]  03 22 08 02 00 00 00 00   '."......'
  can0  TX - -  18DA28F1   [8]  03 22 08 02 00 00 00 00   '."......'
  can0  TX - -  18DA28F1   [8]  03 22 08 02 00 00 00 00   '."......'
  can0  TX - -  18DA28F1   [8]  03 22 08 02 00 00 00 00   '."......'
  can0  TX - -  18DA28F1   [8]  03 22 08 02 00 00 00 00   '."......'
  can0  TX - -  18DA28F1   [8]  03 22 08 02 00 00 00 00   '."......'
  can0  TX - -  18DA28F1   [8]  03 22 08 02 00 00 00 00   '."......'
  can0  RX - -  18DAF128   [8]  03 7F 22 31 00 00 00 00   '.."1....'
  can0  TX - -  18DA28F1   [8]  03 22 08 02 00 00 00 00   '."......'
  can0  TX - -  18DA28F1   [8]  03 22 08 02 00 00 00 00   '."......'
  can0  TX - -  18DA28F1   [8]  03 22 08 02 00 00 00 00   '."......'
  can0  TX - -  18DA28F1   [8]  03 22 08 02 00 00 00 00   '."......'
  can0  TX - -  18DA28F1   [8]  03 22 08 02 00 00 00 00   '."......'
  can0  TX - -  18DA28F1   [8]  03 22 08 02 00 00 00 00   '."......'
  can0  TX - -  18DA28F1   [8]  03 22 08 02 00 00 00 00   '."......'
  can0  TX - -  18DA28F1   [8]  03 22 08 02 00 00 00 00   '."......'
  can0  TX - -  18DA28F1   [8]  03 22 08 02 00 00 00 00   '."......'
  can0  TX - -  18DA28F1   [8]  03 22 08 02 00 00 00 00   '."......'
  can0  TX - -  18DA28F1   [8]  03 22 08 02 00 00 00 00   '."......'
  can0  TX - -  18DA28F1   [8]  03 22 08 02 00 00 00 00   '."......'
  can0  TX - -  18DA28F1   [8]  03 22 08 02 00 00 00 00   '."......'
  can0  TX - -  18DA28F1   [8]  03 22 08 02 00 00 00 00   '."......'
  can0  TX - -  18DA28F1   [8]  03 22 08 02 00 00 00 00   '."......'
  can0  TX - -  18DA28F1   [8]  03 22 08 02 00 00 00 00   '."......'
  can0  TX - -  18DA28F1   [8]  03 22 08 02 00 00 00 00   '."......'
  can0  TX - -  18DA28F1   [8]  03 22 08 02 00 00 00 00   '."......'
  can0  TX - -  18DA28F1   [8]  03 22 08 02 00 00 00 00   '."......'
  can0  RX - -  18DAF128   [8]  03 7F 22 31 00 00 00 00   '.."1....'
  can0  TX - -  18DA28F1   [8]  03 22 08 02 00 00 00 00   '."......'
  can0  TX - -  18DA28F1   [8]  03 22 08 02 00 00 00 00   '."......'
  can0  TX - -  18DA28F1   [8]  03 22 08 02 00 00 00 00   '."......'
  can0  TX - -  18DA28F1   [8]  03 22 08 02 00 00 00 00   '."......'
  can0  TX - -  18DA28F1   [8]  03 22 08 02 00 00 00 00   '."......'
  can0  TX - -  18DA28F1   [8]  03 22 08 02 00 00 00 00   '."......'
  can0  TX - -  18DA28F1   [8]  03 22 08 02 00 00 00 00   '."......'
  can0  TX - -  18DA28F1   [8]  03 22 08 02 00 00 00 00   '."......'
  can0  TX - -  18DA28F1   [8]  03 22 08 02 00 00 00 00   '."......'
  can0  TX - -  18DA28F1   [8]  03 22 08 02 00 00 00 00   '."......'
  can0  TX - -  18DA28F1   [8]  03 22 08 02 00 00 00 00   '."......'
  can0  TX - -  18DA28F1   [8]  03 22 08 02 00 00 00 00   '."......'
  can0  TX - -  18DA28F1   [8]  03 22 08 02 00 00 00 00   '."......'
  can0  TX - -  18DA28F1   [8]  03 22 08 02 00 00 00 00   '."......'
  can0  TX - -  18DA28F1   [8]  03 22 08 02 00 00 00 00   '."......'
  can0  TX - -  18DA28F1   [8]  03 22 08 02 00 00 00 00   '."......'
  can0  TX - -  18DA28F1   [8]  03 22 08 02 00 00 00 00   '."......'
  can0  TX - -  18DA28F1   [8]  03 22 08 02 00 00 00 00   '."......'
  can0  TX - -  18DA28F1   [8]  03 22 08 02 00 00 00 00   '."......'
  can0  TX - -  18DA28F1   [8]  03 22 08 02 00 00 00 00   '."......'
  can0  RX - -  18DAF128   [8]  03 7F 22 31 00 00 00 00   '.."1....'
  can0  TX - -  18DA28F1   [8]  03 22 08 02 00 00 00 00   '."......'
  can0  TX - -  18DA28F1   [8]  03 22 08 02 00 00 00 00   '."......'
  can0  TX - -  18DA28F1   [8]  03 22 08 02 00 00 00 00   '."......'
  can0  TX - -  18DA28F1   [8]  03 22 08 02 00 00 00 00   '."......'
  can0  TX - -  18DA28F1   [8]  03 22 08 02 00 00 00 00   '."......'
  can0  TX - -  18DA28F1   [8]  03 22 08 02 00 00 00 00   '."......'
  can0  TX - -  18DA28F1   [8]  03 22 08 02 00 00 00 00   '."......'
  can0  TX - -  18DA28F1   [8]  03 22 08 02 00 00 00 00   '."......'
  can0  TX - -  18DA28F1   [8]  03 22 08 02 00 00 00 00   '."......'
  can0  TX - -  18DA28F1   [8]  03 22 08 02 00 00 00 00   '."......'
  can0  TX - -  18DA28F1   [8]  03 22 08 02 00 00 00 00   '."......'
  can0  TX - -  18DA28F1   [8]  03 22 08 02 00 00 00 00   '."......'
  can0  TX - -  18DA28F1   [8]  03 22 08 02 00 00 00 00   '."......'
  can0  TX - -  18DA28F1   [8]  03 22 08 02 00 00 00 00   '."......'
  can0  TX - -  18DA28F1   [8]  03 22 08 02 00 00 00 00   '."......'
  can0  TX - -  18DA28F1   [8]  03 22 08 02 00 00 00 00   '."......'
  can0  TX - -  18DA28F1   [8]  03 22 08 02 00 00 00 00   '."......'
  can0  TX - -  18DA28F1   [8]  03 22 08 02 00 00 00 00   '."......'
  can0  TX - -  18DA28F1   [8]  03 22 08 02 00 00 00 00   '."......'
  can0  RX - -  18DAF128   [8]  03 7F 22 31 00 00 00 00   '.."1....'
  can0  TX - -  18DA28F1   [8]  03 22 08 02 00 00 00 00   '."......'
  can0  TX - -  18DA28F1   [8]  03 22 08 02 00 00 00 00   '."......'
  can0  TX - -  18DA28F1   [8]  03 22 08 02 00 00 00 00   '."......'
  can0  TX - -  18DA28F1   [8]  03 22 08 02 00 00 00 00   '."......'
  can0  TX - -  18DA28F1   [8]  03 22 08 02 00 00 00 00   '."......'
  can0  TX - -  18DA28F1   [8]  03 22 08 02 00 00 00 00   '."......'
  can0  TX - -  18DA28F1   [8]  03 22 08 02 00 00 00 00   '."......'
  can0  TX - -  18DA28F1   [8]  03 22 08 02 00 00 00 00   '."......'
  can0  TX - -  18DA28F1   [8]  03 22 08 02 00 00 00 00   '."......'
  can0  TX - -  18DA28F1   [8]  03 22 08 02 00 00 00 00   '."......'
  can0  TX - -  18DA28F1   [8]  03 22 08 02 00 00 00 00   '."......'
  can0  TX - -  18DA28F1   [8]  03 22 08 02 00 00 00 00   '."......'
  can0  TX - -  18DA28F1   [8]  03 22 08 02 00 00 00 00   '."......'
  can0  TX - -  18DA28F1   [8]  03 22 08 02 00 00 00 00   '."......'
  can0  TX - -  18DA28F1   [8]  03 22 08 02 00 00 00 00   '."......'
  can0  TX - -  18DA28F1   [8]  03 22 08 02 00 00 00 00   '."......'
  can0  TX - -  18DA28F1   [8]  03 22 08 02 00 00 00 00   '."......'
  can0  TX - -  18DA28F1   [8]  03 22 08 02 00 00 00 00   '."......'
  can0  TX - -  18DA28F1   [8]  03 22 08 02 00 00 00 00   '."......'
  can0  RX - -  18DAF128   [8]  03 7F 22 31 00 00 00 00   '.."1....'
  can0  TX - -  18DA28F1   [8]  03 22 08 02 00 00 00 00   '."......'
  can0  TX - -  18DA28F1   [8]  03 22 08 02 00 00 00 00   '."......'
  can0  TX - -  18DA28F1   [8]  03 22 08 02 00 00 00 00   '."......'
  can0  TX - -  18DA28F1   [8]  03 22 08 02 00 00 00 00   '."......'
  can0  TX - -  18DA28F1   [8]  03 22 08 02 00 00 00 00   '."......'
  can0  TX - -  18DA28F1   [8]  03 22 08 02 00 00 00 00   '."......'
  can0  TX - -  18DA28F1   [8]  03 22 08 02 00 00 00 00   '."......'
  can0  TX - -  18DA28F1   [8]  03 22 08 02 00 00 00 00   '."......'
  can0  TX - -  18DA28F1   [8]  03 22 08 02 00 00 00 00   '."......'
  can0  TX - -  18DA28F1   [8]  03 22 08 02 00 00 00 00   '."......'
  can0  TX - -  18DA28F1   [8]  03 22 08 02 00 00 00 00   '."......'
  can0  TX - -  18DA28F1   [8]  03 22 08 02 00 00 00 00   '."......'
  can0  TX - -  18DA28F1   [8]  03 22 08 02 00 00 00 00   '."......'
  can0  TX - -  18DA28F1   [8]  03 22 08 02 00 00 00 00   '."......'
  can0  TX - -  18DA28F1   [8]  03 22 08 02 00 00 00 00   '."......'
  can0  TX - -  18DA28F1   [8]  03 22 08 02 00 00 00 00   '."......'
  can0  TX - -  18DA28F1   [8]  03 22 08 02 00 00 00 00   '."......'
  can0  TX - -  18DA28F1   [8]  03 22 08 02 00 00 00 00   '."......'
  can0  TX - -  18DA28F1   [8]  03 22 08 02 00 00 00 00   '."......'
  can0  TX - -  18DA28F1   [8]  03 22 08 02 00 00 00 00   '."......'
  can0  RX - -  18DAF128   [8]  03 7F 22 31 00 00 00 00   '.."1....'
  can0  TX - -  18DA28F1   [8]  03 22 08 02 00 00 00 00   '."......'
  can0  TX - -  18DA28F1   [8]  03 22 08 02 00 00 00 00   '."......'
  can0  TX - -  18DA28F1   [8]  03 22 08 02 00 00 00 00   '."......'
  can0  TX - -  18DA28F1   [8]  03 22 08 02 00 00 00 00   '."......'
  can0  TX - -  18DA28F1   [8]  03 22 08 02 00 00 00 00   '."......'
  can0  TX - -  18DA28F1   [8]  03 22 08 02 00 00 00 00   '."......'
  can0  TX - -  18DA28F1   [8]  03 22 08 02 00 00 00 00   '."......'
  can0  TX - -  18DA28F1   [8]  03 22 08 02 00 00 00 00   '."......'
  can0  TX - -  18DA28F1   [8]  03 22 08 02 00 00 00 00   '."......'
  can0  TX - -  18DA28F1   [8]  03 22 08 02 00 00 00 00   '."......'
  can0  TX - -  18DA28F1   [8]  03 22 08 02 00 00 00 00   '."......'
  can0  TX - -  18DA28F1   [8]  03 22 08 02 00 00 00 00   '."......'
  can0  TX - -  18DA28F1   [8]  03 22 08 02 00 00 00 00   '."......'
  can0  TX - -  18DA28F1   [8]  03 22 08 02 00 00 00 00   '."......'
  can0  TX - -  18DA28F1   [8]  03 22 08 02 00 00 00 00   '."......'
  can0  TX - -  18DA28F1   [8]  03 22 08 02 00 00 00 00   '."......'
  can0  TX - -  18DA28F1   [8]  03 22 08 02 00 00 00 00   '."......'
  can0  TX - -  18DA28F1   [8]  03 22 08 02 00 00 00 00   '."......'
  can0  TX - -  18DA28F1   [8]  03 22 08 02 00 00 00 00   '."......'
  can0  RX - -  18DAF128   [8]  03 7F 22 31 00 00 00 00   '.."1....'
  can0  TX - -  18DA28F1   [8]  03 22 08 02 00 00 00 00   '."......'
  can0  TX - -  18DA28F1   [8]  03 22 08 02 00 00 00 00   '."......'
  can0  TX - -  18DA28F1   [8]  03 22 08 02 00 00 00 00   '."......'
  can0  TX - -  18DA28F1   [8]  03 22 08 02 00 00 00 00   '."......'
  can0  TX - -  18DA28F1   [8]  03 22 08 02 00 00 00 00   '."......'
  can0  TX - -  18DA28F1   [8]  03 22 08 02 00 00 00 00   '."......'
  can0  TX - -  18DA28F1   [8]  03 22 08 02 00 00 00 00   '."......'
  can0  TX - -  18DA28F1   [8]  03 22 08 02 00 00 00 00   '."......'
  can0  TX - -  18DA28F1   [8]  03 22 08 02 00 00 00 00   '."......'
  can0  TX - -  18DA28F1   [8]  03 22 08 02 00 00 00 00   '."......'
  can0  TX - -  18DA28F1   [8]  03 22 08 02 00 00 00 00   '."......'
  can0  TX - -  18DA28F1   [8]  03 22 08 02 00 00 00 00   '."......'
  can0  TX - -  18DA28F1   [8]  03 22 08 02 00 00 00 00   '."......'
  can0  TX - -  18DA28F1   [8]  03 22 08 02 00 00 00 00   '."......'
  can0  TX - -  18DA28F1   [8]  03 22 08 02 00 00 00 00   '."......'
  can0  TX - -  18DA28F1   [8]  03 22 08 02 00 00 00 00   '."......'
  can0  TX - -  18DA28F1   [8]  03 22 08 02 00 00 00 00   '."......'
  can0  TX - -  18DA28F1   [8]  03 22 08 02 00 00 00 00   '."......'
  can0  TX - -  18DA28F1   [8]  30 00 00 00 00 00 00 00   '0.......'
  can0  RX - -  18DAF128   [8]  03 7F 22 31 00 00 00 00   '.."1....'
  can0  TX - -  18DA28F1   [8]  03 22 08 03 00 00 00 00   '."......'
  can0  TX - -  18DA28F1   [8]  03 22 08 03 00 00 00 00   '."......'
  can0  TX - -  18DA28F1   [8]  03 22 08 03 00 00 00 00   '."......'
  can0  TX - -  18DA28F1   [8]  03 22 08 03 00 00 00 00   '."......'
  can0  TX - -  18DA28F1   [8]  03 22 08 03 00 00 00 00   '."......'
  can0  TX - -  18DA28F1   [8]  03 22 08 03 00 00 00 00   '."......'
  can0  TX - -  18DA28F1   [8]  03 22 08 03 00 00 00 00   '."......'
  can0  TX - -  18DA28F1   [8]  03 22 08 03 00 00 00 00   '."......'
  can0  TX - -  18DA28F1   [8]  30 00 00 00 00 00 00 00   '0.......'
  can0  RX - -  18DAF128   [8]  03 7F 22 31 00 00 00 00   '.."1....'
  can0  TX - -  18DA28F1   [8]  03 22 08 04 00 00 00 00   '."......'
  can0  TX - -  18DA28F1   [8]  03 22 08 04 00 00 00 00   '."......'
  can0  TX - -  18DA28F1   [8]  03 22 08 04 00 00 00 00   '."......'
  can0  TX - -  18DA28F1   [8]  03 22 08 04 00 00 00 00   '."......'
  can0  TX - -  18DA28F1   [8]  03 22 08 04 00 00 00 00   '."......'
  can0  TX - -  18DA28F1   [8]  03 22 08 04 00 00 00 00   '."......'
  can0  TX - -  18DA28F1   [8]  03 22 08 04 00 00 00 00   '."......'
  can0  TX - -  18DA28F1   [8]  03 22 08 04 00 00 00 00   '."......'
  can0  TX - -  18DA28F1   [8]  03 22 08 04 00 00 00 00   '."......'
  can0  TX - -  18DA28F1   [8]  30 00 00 00 00 00 00 00   '0.......'
  can0  RX - -  18DAF128   [8]  03 7F 22 31 00 00 00 00   '.."1....'
  can0  TX - -  18DA28F1   [8]  03 22 08 05 00 00 00 00   '."......'
  can0  TX - -  18DA28F1   [8]  03 22 08 05 00 00 00 00   '."......'
  can0  TX - -  18DA28F1   [8]  03 22 08 05 00 00 00 00   '."......'
  can0  TX - -  18DA28F1   [8]  03 22 08 05 00 00 00 00   '."......'
  can0  TX - -  18DA28F1   [8]  03 22 08 05 00 00 00 00   '."......'
  can0  TX - -  18DA28F1   [8]  03 22 08 05 00 00 00 00   '."......'
  can0  TX - -  18DA28F1   [8]  03 22 08 05 00 00 00 00   '."......'
  can0  TX - -  18DA28F1   [8]  03 22 08 05 00 00 00 00   '."......'
  can0  TX - -  18DA28F1   [8]  03 22 08 05 00 00 00 00   '."......'
  can0  TX - -  18DA28F1   [8]  30 00 00 00 00 00 00 00   '0.......'
  can0  RX - -  18DAF128   [8]  03 7F 22 31 00 00 00 00   '.."1....'
  can0  TX - -  18DA28F1   [8]  03 22 08 06 00 00 00 00   '."......'
  can0  TX - -  18DA28F1   [8]  03 22 08 06 00 00 00 00   '."......'
  can0  TX - -  18DA28F1   [8]  03 22 08 06 00 00 00 00   '."......'
  can0  TX - -  18DA28F1   [8]  03 22 08 06 00 00 00 00   '."......'
  can0  TX - -  18DA28F1   [8]  03 22 08 06 00 00 00 00   '."......'
  can0  TX - -  18DA28F1   [8]  03 22 08 06 00 00 00 00   '."......'
  can0  TX - -  18DA28F1   [8]  03 22 08 06 00 00 00 00   '."......'
  can0  TX - -  18DA28F1   [8]  03 22 08 06 00 00 00 00   '."......'
  can0  TX - -  18DA28F1   [8]  03 22 08 06 00 00 00 00   '."......'
  can0  TX - -  18DA28F1   [8]  03 22 08 06 00 00 00 00   '."......'
  can0  TX - -  18DA28F1   [8]  03 22 08 06 00 00 00 00   '."......'
  can0  TX - -  18DA28F1   [8]  03 22 08 06 00 00 00 00   '."......'
  can0  TX - -  18DA28F1   [8]  30 00 00 00 00 00 00 00   '0.......'
  can0  RX - -  18DAF128   [8]  03 7F 22 31 00 00 00 00   '.."1....'
  can0  TX - -  18DA28F1   [8]  03 22 08 07 00 00 00 00   '."......'
  can0  TX - -  18DA28F1   [8]  03 22 08 07 00 00 00 00   '."......'
  can0  TX - -  18DA28F1   [8]  03 22 08 07 00 00 00 00   '."......'
  can0  TX - -  18DA28F1   [8]  03 22 08 07 00 00 00 00   '."......'
  can0  TX - -  18DA28F1   [8]  03 22 08 07 00 00 00 00   '."......'
  can0  TX - -  18DA28F1   [8]  03 22 08 07 00 00 00 00   '."......'
  can0  TX - -  18DA28F1   [8]  03 22 08 07 00 00 00 00   '."......'
  can0  TX - -  18DA28F1   [8]  03 22 08 07 00 00 00 00   '."......'
  can0  TX - -  18DA28F1   [8]  30 00 00 00 00 00 00 00   '0.......'
  can0  RX - -  18DAF128   [8]  03 7F 22 31 00 00 00 00   '.."1....'
  can0  TX - -  18DA28F1   [8]  03 22 08 08 00 00 00 00   '."......'
  can0  TX - -  18DA28F1   [8]  03 22 08 08 00 00 00 00   '."......'
  can0  TX - -  18DA28F1   [8]  03 22 08 08 00 00 00 00   '."......'
  can0  TX - -  18DA28F1   [8]  03 22 08 08 00 00 00 00   '."......'
  can0  TX - -  18DA28F1   [8]  03 22 08 08 00 00 00 00   '."......'
  can0  TX - -  18DA28F1   [8]  03 22 08 08 00 00 00 00   '."......'
  can0  TX - -  18DA28F1   [8]  03 22 08 08 00 00 00 00   '."......'
  can0  TX - -  18DA28F1   [8]  03 22 08 08 00 00 00 00   '."......'
  can0  TX - -  18DA28F1   [8]  30 00 00 00 00 00 00 00   '0.......'
  can0  RX - -  18DAF128   [8]  03 7F 22 31 00 00 00 00   '.."1....'
  can0  TX - -  18DA28F1   [8]  03 22 08 09 00 00 00 00   '."......'
  can0  TX - -  18DA28F1   [8]  03 22 08 09 00 00 00 00   '."......'
  can0  TX - -  18DA28F1   [8]  03 22 08 09 00 00 00 00   '."......'
  can0  TX - -  18DA28F1   [8]  03 22 08 09 00 00 00 00   '."......'
  can0  TX - -  18DA28F1   [8]  03 22 08 09 00 00 00 00   '."......'
  can0  TX - -  18DA28F1   [8]  03 22 08 09 00 00 00 00   '."......'
  can0  TX - -  18DA28F1   [8]  03 22 08 09 00 00 00 00   '."......'
  can0  TX - -  18DA28F1   [8]  03 22 08 09 00 00 00 00   '."......'
  can0  TX - -  18DA28F1   [8]  30 00 00 00 00 00 00 00   '0.......'
  can0  RX - -  18DAF128   [8]  03 7F 22 31 00 00 00 00   '.."1....'
  can0  TX - -  18DA28F1   [8]  03 22 08 0A 00 00 00 00   '."......'
  can0  TX - -  18DA28F1   [8]  03 22 08 0A 00 00 00 00   '."......'
  can0  TX - -  18DA28F1   [8]  03 22 08 0A 00 00 00 00   '."......'
  can0  TX - -  18DA28F1   [8]  03 22 08 0A 00 00 00 00   '."......'
  can0  TX - -  18DA28F1   [8]  03 22 08 0A 00 00 00 00   '."......'
  can0  TX - -  18DA28F1   [8]  03 22 08 0A 00 00 00 00   '."......'
  can0  TX - -  18DA28F1   [8]  03 22 08 0A 00 00 00 00   '."......'
  can0  TX - -  18DA28F1   [8]  03 22 08 0A 00 00 00 00   '."......'
  can0  TX - -  18DA28F1   [8]  03 22 08 0A 00 00 00 00   '."......'
  can0  TX - -  18DA28F1   [8]  03 22 08 0A 00 00 00 00   '."......'
  can0  TX - -  18DA28F1   [8]  03 22 08 0A 00 00 00 00   '."......'
  can0  TX - -  18DA28F1   [8]  03 22 08 0A 00 00 00 00   '."......'
  can0  TX - -  18DA28F1   [8]  30 00 00 00 00 00 00 00   '0.......'
  can0  RX - -  18DAF128   [8]  03 7F 22 31 00 00 00 00   '.."1....'
  can0  TX - -  18DA28F1   [8]  03 22 08 0B 00 00 00 00   '."......'
  can0  TX - -  18DA28F1   [8]  03 22 08 0B 00 00 00 00   '."......'
  can0  TX - -  18DA28F1   [8]  03 22 08 0B 00 00 00 00   '."......'
  can0  TX - -  18DA28F1   [8]  03 22 08 0B 00 00 00 00   '."......'
  can0  TX - -  18DA28F1   [8]  03 22 08 0B 00 00 00 00   '."......'
  can0  TX - -  18DA28F1   [8]  03 22 08 0B 00 00 00 00   '."......'
  can0  TX - -  18DA28F1   [8]  03 22 08 0B 00 00 00 00   '."......'
  can0  TX - -  18DA28F1   [8]  03 22 08 0B 00 00 00 00   '."......'
  can0  TX - -  18DA28F1   [8]  03 22 08 0B 00 00 00 00   '."......'
  can0  TX - -  18DA28F1   [8]  30 00 00 00 00 00 00 00   '0.......'
  can0  RX - -  18DAF128   [8]  03 7F 22 31 00 00 00 00   '.."1....'
  can0  TX - -  18DA28F1   [8]  03 22 08 0C 00 00 00 00   '."......'
  can0  TX - -  18DA28F1   [8]  03 22 08 0C 00 00 00 00   '."......'
  can0  TX - -  18DA28F1   [8]  03 22 08 0C 00 00 00 00   '."......'
  can0  TX - -  18DA28F1   [8]  03 22 08 0C 00 00 00 00   '."......'
  can0  TX - -  18DA28F1   [8]  03 22 08 0C 00 00 00 00   '."......'
  can0  TX - -  18DA28F1   [8]  03 22 08 0C 00 00 00 00   '."......'
  can0  TX - -  18DA28F1   [8]  03 22 08 0C 00 00 00 00   '."......'
  can0  TX - -  18DA28F1   [8]  03 22 08 0C 00 00 00 00   '."......'
  can0  TX - -  18DA28F1   [8]  03 22 08 0C 00 00 00 00   '."......'
  can0  TX - -  18DA28F1   [8]  30 00 00 00 00 00 00 00   '0.......'
  can0  RX - -  18DAF128   [8]  03 7F 22 31 00 00 00 00   '.."1....'
  can0  TX - -  18DA28F1   [8]  03 22 08 0D 00 00 00 00   '."......'
  can0  TX - -  18DA28F1   [8]  03 22 08 0D 00 00 00 00   '."......'
  can0  TX - -  18DA28F1   [8]  03 22 08 0D 00 00 00 00   '."......'
  can0  TX - -  18DA28F1   [8]  03 22 08 0D 00 00 00 00   '."......'
  can0  TX - -  18DA28F1   [8]  03 22 08 0D 00 00 00 00   '."......'
  can0  TX - -  18DA28F1   [8]  03 22 08 0D 00 00 00 00   '."......'
  can0  TX - -  18DA28F1   [8]  03 22 08 0D 00 00 00 00   '."......'
  can0  TX - -  18DA28F1   [8]  03 22 08 0D 00 00 00 00   '."......'
  can0  TX - -  18DA28F1   [8]  30 00 00 00 00 00 00 00   '0.......'
  can0  RX - -  18DAF128   [8]  03 7F 22 31 00 00 00 00   '.."1....'
  can0  TX - -  18DA28F1   [8]  03 22 08 0E 00 00 00 00   '."......'
  can0  TX - -  18DA28F1   [8]  03 22 08 0E 00 00 00 00   '."......'
  can0  TX - -  18DA28F1   [8]  03 22 08 0E 00 00 00 00   '."......'
  can0  TX - -  18DA28F1   [8]  03 22 08 0E 00 00 00 00   '."......'
  can0  TX - -  18DA28F1   [8]  03 22 08 0E 00 00 00 00   '."......'
  can0  TX - -  18DA28F1   [8]  03 22 08 0E 00 00 00 00   '."......'
  can0  TX - -  18DA28F1   [8]  03 22 08 0E 00 00 00 00   '."......'
  can0  TX - -  18DA28F1   [8]  03 22 08 0E 00 00 00 00   '."......'
  can0  TX - -  18DA28F1   [8]  30 00 00 00 00 00 00 00   '0.......'
  can0  RX - -  18DAF128   [8]  03 7F 22 31 00 00 00 00   '.."1....'
  can0  TX - -  18DA28F1   [8]  03 22 08 0F 00 00 00 00   '."......'
  can0  TX - -  18DA28F1   [8]  03 22 08 0F 00 00 00 00   '."......'
  can0  TX - -  18DA28F1   [8]  03 22 08 0F 00 00 00 00   '."......'
  can0  TX - -  18DA28F1   [8]  03 22 08 0F 00 00 00 00   '."......'
  can0  TX - -  18DA28F1   [8]  03 22 08 0F 00 00 00 00   '."......'
  can0  TX - -  18DA28F1   [8]  03 22 08 0F 00 00 00 00   '."......'
  can0  TX - -  18DA28F1   [8]  03 22 08 0F 00 00 00 00   '."......'
  can0  TX - -  18DA28F1   [8]  03 22 08 0F 00 00 00 00   '."......'
  can0  TX - -  18DA28F1   [8]  03 22 08 0F 00 00 00 00   '."......'
  can0  TX - -  18DA28F1   [8]  03 22 08 0F 00 00 00 00   '."......'
  can0  TX - -  18DA28F1   [8]  30 00 00 00 00 00 00 00   '0.......'
  can0  RX - -  18DAF128   [8]  03 7F 22 31 00 00 00 00   '.."1....'
  can0  TX - -  18DA28F1   [8]  03 22 08 10 00 00 00 00   '."......'
  can0  TX - -  18DA28F1   [8]  03 22 08 10 00 00 00 00   '."......'
  can0  TX - -  18DA28F1   [8]  03 22 08 10 00 00 00 00   '."......'
  can0  TX - -  18DA28F1   [8]  03 22 08 10 00 00 00 00   '."......'
  can0  TX - -  18DA28F1   [8]  03 22 08 10 00 00 00 00   '."......'
  can0  TX - -  18DA28F1   [8]  03 22 08 10 00 00 00 00   '."......'
  can0  TX - -  18DA28F1   [8]  03 22 08 10 00 00 00 00   '."......'
  can0  TX - -  18DA28F1   [8]  03 22 08 10 00 00 00 00   '."......'
  can0  TX - -  18DA28F1   [8]  03 22 08 10 00 00 00 00   '."......'
  can0  TX - -  18DA28F1   [8]  30 00 00 00 00 00 00 00   '0.......'
  can0  RX - -  18DAF128   [8]  03 7F 22 31 00 00 00 00   '.."1....'
  can0  TX - -  18DA28F1   [8]  03 22 08 11 00 00 00 00   '."......'
  can0  TX - -  18DA28F1   [8]  03 22 08 11 00 00 00 00   '."......'
  can0  TX - -  18DA28F1   [8]  03 22 08 11 00 00 00 00   '."......'
  can0  TX - -  18DA28F1   [8]  03 22 08 11 00 00 00 00   '."......'
  can0  TX - -  18DA28F1   [8]  03 22 08 11 00 00 00 00   '."......'
  can0  TX - -  18DA28F1   [8]  03 22 08 11 00 00 00 00   '."......'
  can0  TX - -  18DA28F1   [8]  03 22 08 11 00 00 00 00   '."......'
  can0  TX - -  18DA28F1   [8]  03 22 08 11 00 00 00 00   '."......'
  can0  TX - -  18DA28F1   [8]  03 22 08 11 00 00 00 00   '."......'
  can0  TX - -  18DA28F1   [8]  30 00 00 00 00 00 00 00   '0.......'
  can0  RX - -  18DAF128   [8]  03 7F 22 31 00 00 00 00   '.."1....'
  can0  TX - -  18DA28F1   [8]  03 22 08 12 00 00 00 00   '."......'
  can0  TX - -  18DA28F1   [8]  03 22 08 12 00 00 00 00   '."......'
  can0  TX - -  18DA28F1   [8]  03 22 08 12 00 00 00 00   '."......'
  can0  TX - -  18DA28F1   [8]  03 22 08 12 00 00 00 00   '."......'
  can0  TX - -  18DA28F1   [8]  03 22 08 12 00 00 00 00   '."......'
  can0  TX - -  18DA28F1   [8]  03 22 08 12 00 00 00 00   '."......'
  can0  TX - -  18DA28F1   [8]  03 22 08 12 00 00 00 00   '."......'
  can0  TX - -  18DA28F1   [8]  03 22 08 12 00 00 00 00   '."......'
  can0  TX - -  18DA28F1   [8]  03 22 08 12 00 00 00 00   '."......'
  can0  TX - -  18DA28F1   [8]  30 00 00 00 00 00 00 00   '0.......'
  can0  RX - -  18DAF128   [8]  03 7F 22 31 00 00 00 00   '.."1....'
  can0  TX - -  18DA28F1   [8]  03 22 08 13 00 00 00 00   '."......'
  can0  TX - -  18DA28F1   [8]  03 22 08 13 00 00 00 00   '."......'
  can0  TX - -  18DA28F1   [8]  03 22 08 13 00 00 00 00   '."......'
  can0  TX - -  18DA28F1   [8]  03 22 08 13 00 00 00 00   '."......'
  can0  TX - -  18DA28F1   [8]  03 22 08 13 00 00 00 00   '."......'
  can0  TX - -  18DA28F1   [8]  03 22 08 13 00 00 00 00   '."......'
  can0  TX - -  18DA28F1   [8]  03 22 08 13 00 00 00 00   '."......'
  can0  TX - -  18DA28F1   [8]  03 22 08 13 00 00 00 00   '."......'
  can0  TX - -  18DA28F1   [8]  03 22 08 13 00 00 00 00   '."......'
  can0  TX - -  18DA28F1   [8]  03 22 08 13 00 00 00 00   '."......'
  can0  TX - -  18DA28F1   [8]  03 22 08 13 00 00 00 00   '."......'
  can0  TX - -  18DA28F1   [8]  03 22 08 13 00 00 00 00   '."......'
  can0  TX - -  18DA28F1   [8]  03 22 08 13 00 00 00 00   '."......'
  can0  TX - -  18DA28F1   [8]  03 22 08 13 00 00 00 00   '."......'
  can0  TX - -  18DA28F1   [8]  03 22 08 13 00 00 00 00   '."......'
  can0  TX - -  18DA28F1   [8]  03 22 08 13 00 00 00 00   '."......'
  can0  TX - -  18DA28F1   [8]  03 22 08 13 00 00 00 00   '."......'
  can0  TX - -  18DA28F1   [8]  03 22 08 13 00 00 00 00   '."......'
  can0  TX - -  18DA28F1   [8]  03 22 08 13 00 00 00 00   '."......'
  can0  TX - -  18DA28F1   [8]  03 22 08 13 00 00 00 00   '."......'
  can0  TX - -  18DA28F1   [8]  03 22 08 13 00 00 00 00   '."......'
  can0  RX - -  18DAF128   [8]  03 7F 22 31 00 00 00 00   '.."1....'
  can0  TX - -  18DA28F1   [8]  03 22 08 13 00 00 00 00   '."......'
  can0  TX - -  18DA28F1   [8]  03 22 08 13 00 00 00 00   '."......'
  can0  TX - -  18DA28F1   [8]  03 22 08 13 00 00 00 00   '."......'
  can0  TX - -  18DA28F1   [8]  03 22 08 13 00 00 00 00   '."......'
  can0  TX - -  18DA28F1   [8]  03 22 08 13 00 00 00 00   '."......'
  can0  TX - -  18DA28F1   [8]  03 22 08 13 00 00 00 00   '."......'
  can0  TX - -  18DA28F1   [8]  03 22 08 13 00 00 00 00   '."......'
  can0  TX - -  18DA28F1   [8]  03 22 08 13 00 00 00 00   '."......'
  can0  TX - -  18DA28F1   [8]  03 22 08 13 00 00 00 00   '."......'
  can0  TX - -  18DA28F1   [8]  03 22 08 13 00 00 00 00   '."......'
  can0  TX - -  18DA28F1   [8]  03 22 08 13 00 00 00 00   '."......'
  can0  TX - -  18DA28F1   [8]  03 22 08 13 00 00 00 00   '."......'
  can0  TX - -  18DA28F1   [8]  03 22 08 13 00 00 00 00   '."......'
  can0  TX - -  18DA28F1   [8]  03 22 08 13 00 00 00 00   '."......'
  can0  TX - -  18DA28F1   [8]  03 22 08 13 00 00 00 00   '."......'
  can0  TX - -  18DA28F1   [8]  03 22 08 13 00 00 00 00   '."......'
  can0  TX - -  18DA28F1   [8]  03 22 08 13 00 00 00 00   '."......'
  can0  TX - -  18DA28F1   [8]  03 22 08 13 00 00 00 00   '."......'
  can0  TX - -  18DA28F1   [8]  03 22 08 13 00 00 00 00   '."......'
  can0  TX - -  18DA28F1   [8]  03 22 08 13 00 00 00 00   '."......'
  can0  RX - -  18DAF128   [8]  03 7F 22 31 00 00 00 00   '.."1....'
  can0  TX - -  18DA28F1   [8]  03 22 08 13 00 00 00 00   '."......'
  can0  TX - -  18DA28F1   [8]  03 22 08 13 00 00 00 00   '."......'
  can0  TX - -  18DA28F1   [8]  03 22 08 13 00 00 00 00   '."......'
  can0  TX - -  18DA28F1   [8]  03 22 08 13 00 00 00 00   '."......'
  can0  TX - -  18DA28F1   [8]  03 22 08 13 00 00 00 00   '."......'
  can0  TX - -  18DA28F1   [8]  03 22 08 13 00 00 00 00   '."......'
  can0  TX - -  18DA28F1   [8]  03 22 08 13 00 00 00 00   '."......'
  can0  TX - -  18DA28F1   [8]  03 22 08 13 00 00 00 00   '."......'
  can0  TX - -  18DA28F1   [8]  03 22 08 13 00 00 00 00   '."......'
  can0  TX - -  18DA28F1   [8]  03 22 08 13 00 00 00 00   '."......'
  can0  TX - -  18DA28F1   [8]  03 22 08 13 00 00 00 00   '."......'
  can0  TX - -  18DA28F1   [8]  03 22 08 13 00 00 00 00   '."......'
  can0  TX - -  18DA28F1   [8]  03 22 08 13 00 00 00 00   '."......'
  can0  TX - -  18DA28F1   [8]  03 22 08 13 00 00 00 00   '."......'
  can0  TX - -  18DA28F1   [8]  03 22 08 13 00 00 00 00   '."......'
  can0  TX - -  18DA28F1   [8]  03 22 08 13 00 00 00 00   '."......'
  can0  TX - -  18DA28F1   [8]  03 22 08 13 00 00 00 00   '."......'
  can0  TX - -  18DA28F1   [8]  03 22 08 13 00 00 00 00   '."......'
  can0  TX - -  18DA28F1   [8]  03 22 08 13 00 00 00 00   '."......'
  can0  TX - -  18DA28F1   [8]  03 22 08 13 00 00 00 00   '."......'
  can0  RX - -  18DAF128   [8]  03 7F 22 31 00 00 00 00   '.."1....'
  can0  TX - -  18DA28F1   [8]  03 22 08 13 00 00 00 00   '."......'
  can0  TX - -  18DA28F1   [8]  03 22 08 13 00 00 00 00   '."......'
  can0  TX - -  18DA28F1   [8]  03 22 08 13 00 00 00 00   '."......'
  can0  TX - -  18DA28F1   [8]  03 22 08 13 00 00 00 00   '."......'
  can0  TX - -  18DA28F1   [8]  03 22 08 13 00 00 00 00   '."......'
  can0  TX - -  18DA28F1   [8]  03 22 08 13 00 00 00 00   '."......'
  can0  TX - -  18DA28F1   [8]  03 22 08 13 00 00 00 00   '."......'
  can0  TX - -  18DA28F1   [8]  03 22 08 13 00 00 00 00   '."......'
  can0  TX - -  18DA28F1   [8]  03 22 08 13 00 00 00 00   '."......'
  can0  TX - -  18DA28F1   [8]  03 22 08 13 00 00 00 00   '."......'
  can0  TX - -  18DA28F1   [8]  03 22 08 13 00 00 00 00   '."......'
  can0  TX - -  18DA28F1   [8]  03 22 08 13 00 00 00 00   '."......'
  can0  TX - -  18DA28F1   [8]  03 22 08 13 00 00 00 00   '."......'
  can0  TX - -  18DA28F1   [8]  03 22 08 13 00 00 00 00   '."......'
  can0  TX - -  18DA28F1   [8]  03 22 08 13 00 00 00 00   '."......'
  can0  TX - -  18DA28F1   [8]  03 22 08 13 00 00 00 00   '."......'
  can0  TX - -  18DA28F1   [8]  03 22 08 13 00 00 00 00   '."......'
  can0  TX - -  18DA28F1   [8]  03 22 08 13 00 00 00 00   '."......'
  can0  RX - -  18DAF128   [8]  03 7F 22 31 00 00 00 00   '.."1....'
  can0  TX - -  18DA28F1   [8]  03 22 08 13 00 00 00 00   '."......'
  can0  TX - -  18DA28F1   [8]  03 22 08 13 00 00 00 00   '."......'
  can0  TX - -  18DA28F1   [8]  03 22 08 13 00 00 00 00   '."......'
  can0  TX - -  18DA28F1   [8]  03 22 08 13 00 00 00 00   '."......'
  can0  TX - -  18DA28F1   [8]  03 22 08 13 00 00 00 00   '."......'
  can0  TX - -  18DA28F1   [8]  03 22 08 13 00 00 00 00   '."......'
  can0  TX - -  18DA28F1   [8]  03 22 08 13 00 00 00 00   '."......'
  can0  TX - -  18DA28F1   [8]  03 22 08 13 00 00 00 00   '."......'
  can0  TX - -  18DA28F1   [8]  03 22 08 13 00 00 00 00   '."......'
  can0  TX - -  18DA28F1   [8]  03 22 08 13 00 00 00 00   '."......'
  can0  TX - -  18DA28F1   [8]  03 22 08 13 00 00 00 00   '."......'
  can0  TX - -  18DA28F1   [8]  03 22 08 13 00 00 00 00   '."......'
  can0  TX - -  18DA28F1   [8]  03 22 08 13 00 00 00 00   '."......'
  can0  TX - -  18DA28F1   [8]  03 22 08 13 00 00 00 00   '."......'
  can0  TX - -  18DA28F1   [8]  03 22 08 13 00 00 00 00   '."......'
  can0  TX - -  18DA28F1   [8]  03 22 08 13 00 00 00 00   '."......'
  can0  TX - -  18DA28F1   [8]  03 22 08 13 00 00 00 00   '."......'
  can0  TX - -  18DA28F1   [8]  03 22 08 13 00 00 00 00   '."......'
  can0  RX - -  18DAF128   [8]  03 7F 22 31 00 00 00 00   '.."1....'
  can0  TX - -  18DA28F1   [8]  03 22 08 13 00 00 00 00   '."......'
  can0  TX - -  18DA28F1   [8]  03 22 08 13 00 00 00 00   '."......'
  can0  TX - -  18DA28F1   [8]  03 22 08 13 00 00 00 00   '."......'
  can0  TX - -  18DA28F1   [8]  03 22 08 13 00 00 00 00   '."......'
  can0  TX - -  18DA28F1   [8]  03 22 08 13 00 00 00 00   '."......'
  can0  TX - -  18DA28F1   [8]  03 22 08 13 00 00 00 00   '."......'
  can0  TX - -  18DA28F1   [8]  03 22 08 13 00 00 00 00   '."......'
  can0  TX - -  18DA28F1   [8]  03 22 08 13 00 00 00 00   '."......'
  can0  TX - -  18DA28F1   [8]  03 22 08 13 00 00 00 00   '."......'
  can0  TX - -  18DA28F1   [8]  03 22 08 13 00 00 00 00   '."......'
  can0  TX - -  18DA28F1   [8]  03 22 08 13 00 00 00 00   '."......'
  can0  TX - -  18DA28F1   [8]  03 22 08 13 00 00 00 00   '."......'
  can0  TX - -  18DA28F1   [8]  03 22 08 13 00 00 00 00   '."......'
  can0  TX - -  18DA28F1   [8]  03 22 08 13 00 00 00 00   '."......'
  can0  TX - -  18DA28F1   [8]  03 22 08 13 00 00 00 00   '."......'
  can0  TX - -  18DA28F1   [8]  03 22 08 13 00 00 00 00   '."......'
  can0  TX - -  18DA28F1   [8]  03 22 08 13 00 00 00 00   '."......'
  can0  TX - -  18DA28F1   [8]  03 22 08 13 00 00 00 00   '."......'
  can0  TX - -  18DA28F1   [8]  03 22 08 13 00 00 00 00   '."......'
  can0  TX - -  18DA28F1   [8]  03 22 08 13 00 00 00 00   '."......'
  can0  RX - -  18DAF128   [8]  03 7F 22 31 00 00 00 00   '.."1....'
  can0  TX - -  18DA28F1   [8]  03 22 08 13 00 00 00 00   '."......'
  can0  TX - -  18DA28F1   [8]  03 22 08 13 00 00 00 00   '."......'
  can0  TX - -  18DA28F1   [8]  03 22 08 13 00 00 00 00   '."......'
  can0  TX - -  18DA28F1   [8]  03 22 08 13 00 00 00 00   '."......'
  can0  TX - -  18DA28F1   [8]  03 22 08 13 00 00 00 00   '."......'
  can0  TX - -  18DA28F1   [8]  03 22 08 13 00 00 00 00   '."......'
  can0  TX - -  18DA28F1   [8]  03 22 08 13 00 00 00 00   '."......'
  can0  TX - -  18DA28F1   [8]  03 22 08 13 00 00 00 00   '."......'
  can0  TX - -  18DA28F1   [8]  03 22 08 13 00 00 00 00   '."......'
  can0  TX - -  18DA28F1   [8]  03 22 08 13 00 00 00 00   '."......'
  can0  TX - -  18DA28F1   [8]  03 22 08 13 00 00 00 00   '."......'
  can0  TX - -  18DA28F1   [8]  03 22 08 13 00 00 00 00   '."......'
  can0  TX - -  18DA28F1   [8]  03 22 08 13 00 00 00 00   '."......'
  can0  TX - -  18DA28F1   [8]  03 22 08 13 00 00 00 00   '."......'
  can0  TX - -  18DA28F1   [8]  03 22 08 13 00 00 00 00   '."......'
  can0  TX - -  18DA28F1   [8]  03 22 08 13 00 00 00 00   '."......'
  can0  TX - -  18DA28F1   [8]  03 22 08 13 00 00 00 00   '."......'
  can0  TX - -  18DA28F1   [8]  03 22 08 13 00 00 00 00   '."......'
  can0  TX - -  18DA28F1   [8]  03 22 08 13 00 00 00 00   '."......'
  can0  TX - -  18DA28F1   [8]  03 22 08 13 00 00 00 00   '."......'
  can0  RX - -  18DAF128   [8]  03 7F 22 31 00 00 00 00   '.."1....'
  can0  TX - -  18DA28F1   [8]  03 22 08 13 00 00 00 00   '."......'
  can0  TX - -  18DA28F1   [8]  03 22 08 13 00 00 00 00   '."......'
  can0  TX - -  18DA28F1   [8]  03 22 08 13 00 00 00 00   '."......'
  can0  TX - -  18DA28F1   [8]  03 22 08 13 00 00 00 00   '."......'
  can0  TX - -  18DA28F1   [8]  03 22 08 13 00 00 00 00   '."......'
  can0  TX - -  18DA28F1   [8]  03 22 08 13 00 00 00 00   '."......'
  can0  TX - -  18DA28F1   [8]  03 22 08 13 00 00 00 00   '."......'
  can0  TX - -  18DA28F1   [8]  03 22 08 13 00 00 00 00   '."......'
  can0  TX - -  18DA28F1   [8]  03 22 08 13 00 00 00 00   '."......'
  can0  TX - -  18DA28F1   [8]  03 22 08 13 00 00 00 00   '."......'
  can0  TX - -  18DA28F1   [8]  03 22 08 13 00 00 00 00   '."......'
  can0  TX - -  18DA28F1   [8]  03 22 08 13 00 00 00 00   '."......'
  can0  TX - -  18DA28F1   [8]  03 22 08 13 00 00 00 00   '."......'
  can0  TX - -  18DA28F1   [8]  03 22 08 13 00 00 00 00   '."......'
  can0  TX - -  18DA28F1   [8]  03 22 08 13 00 00 00 00   '."......'
  can0  TX - -  18DA28F1   [8]  03 22 08 13 00 00 00 00   '."......'
  can0  TX - -  18DA28F1   [8]  03 22 08 13 00 00 00 00   '."......'
  can0  TX - -  18DA28F1   [8]  03 22 08 13 00 00 00 00   '."......'
  can0  TX - -  18DA28F1   [8]  03 22 08 13 00 00 00 00   '."......'
  can0  TX - -  18DA28F1   [8]  03 22 08 13 00 00 00 00   '."......'
  can0  RX - -  18DAF128   [8]  03 7F 22 31 00 00 00 00   '.."1....'
  can0  TX - -  18DA28F1   [8]  03 22 08 13 00 00 00 00   '."......'
  can0  TX - -  18DA28F1   [8]  03 22 08 13 00 00 00 00   '."......'
  can0  TX - -  18DA28F1   [8]  03 22 08 13 00 00 00 00   '."......'
  can0  TX - -  18DA28F1   [8]  03 22 08 13 00 00 00 00   '."......'
  can0  TX - -  18DA28F1   [8]  03 22 08 13 00 00 00 00   '."......'
  can0  TX - -  18DA28F1   [8]  03 22 08 13 00 00 00 00   '."......'
  can0  TX - -  18DA28F1   [8]  03 22 08 13 00 00 00 00   '."......'
  can0  TX - -  18DA28F1   [8]  03 22 08 13 00 00 00 00   '."......'
  can0  TX - -  18DA28F1   [8]  03 22 08 13 00 00 00 00   '."......'
  can0  TX - -  18DA28F1   [8]  03 22 08 13 00 00 00 00   '."......'
  can0  TX - -  18DA28F1   [8]  03 22 08 13 00 00 00 00   '."......'
  can0  TX - -  18DA28F1   [8]  03 22 08 13 00 00 00 00   '."......'
  can0  TX - -  18DA28F1   [8]  03 22 08 13 00 00 00 00   '."......'
  can0  TX - -  18DA28F1   [8]  03 22 08 13 00 00 00 00   '."......'
  can0  TX - -  18DA28F1   [8]  03 22 08 13 00 00 00 00   '."......'
  can0  TX - -  18DA28F1   [8]  03 22 08 13 00 00 00 00   '."......'
  can0  TX - -  18DA28F1   [8]  03 22 08 13 00 00 00 00   '."......'
  can0  TX - -  18DA28F1   [8]  03 22 08 13 00 00 00 00   '."......'
  can0  TX - -  18DA28F1   [8]  03 22 08 13 00 00 00 00   '."......'
  can0  RX - -  18DAF128   [8]  03 7F 22 31 00 00 00 00   '.."1....'
  can0  TX - -  18DA28F1   [8]  03 22 08 13 00 00 00 00   '."......'
  can0  TX - -  18DA28F1   [8]  03 22 08 13 00 00 00 00   '."......'
  can0  TX - -  18DA28F1   [8]  03 22 08 13 00 00 00 00   '."......'
  can0  TX - -  18DA28F1   [8]  03 22 08 13 00 00 00 00   '."......'
  can0  TX - -  18DA28F1   [8]  03 22 08 13 00 00 00 00   '."......'
  can0  TX - -  18DA28F1   [8]  03 22 08 13 00 00 00 00   '."......'
  can0  TX - -  18DA28F1   [8]  03 22 08 13 00 00 00 00   '."......'
  can0  TX - -  18DA28F1   [8]  30 00 00 00 00 00 00 00   '0.......'
  can0  RX - -  18DAF128   [8]  03 7F 22 31 00 00 00 00   '.."1....'
  can0  TX - -  18DA28F1   [8]  03 22 08 14 00 00 00 00   '."......'
  can0  TX - -  18DA28F1   [8]  03 22 08 14 00 00 00 00   '."......'
  can0  TX - -  18DA28F1   [8]  03 22 08 14 00 00 00 00   '."......'
  can0  TX - -  18DA28F1   [8]  03 22 08 14 00 00 00 00   '."......'
  can0  TX - -  18DA28F1   [8]  03 22 08 14 00 00 00 00   '."......'
  can0  TX - -  18DA28F1   [8]  03 22 08 14 00 00 00 00   '."......'
  can0  TX - -  18DA28F1   [8]  03 22 08 14 00 00 00 00   '."......'
  can0  TX - -  18DA28F1   [8]  03 22 08 14 00 00 00 00   '."......'
  can0  TX - -  18DA28F1   [8]  30 00 00 00 00 00 00 00   '0.......'
  can0  RX - -  18DAF128   [8]  03 7F 22 31 00 00 00 00   '.."1....'
  can0  TX - -  18DA28F1   [8]  03 22 08 15 00 00 00 00   '."......'
  can0  TX - -  18DA28F1   [8]  03 22 08 15 00 00 00 00   '."......'
  can0  TX - -  18DA28F1   [8]  03 22 08 15 00 00 00 00   '."......'
  can0  TX - -  18DA28F1   [8]  03 22 08 15 00 00 00 00   '."......'
  can0  TX - -  18DA28F1   [8]  03 22 08 15 00 00 00 00   '."......'
  can0  TX - -  18DA28F1   [8]  03 22 08 15 00 00 00 00   '."......'
  can0  TX - -  18DA28F1   [8]  03 22 08 15 00 00 00 00   '."......'
  can0  TX - -  18DA28F1   [8]  03 22 08 15 00 00 00 00   '."......'
  can0  TX - -  18DA28F1   [8]  03 22 08 15 00 00 00 00   '."......'
  can0  TX - -  18DA28F1   [8]  03 22 08 15 00 00 00 00   '."......'
  can0  TX - -  18DA28F1   [8]  30 00 00 00 00 00 00 00   '0.......'
  can0  RX - -  18DAF128   [8]  03 7F 22 31 00 00 00 00   '.."1....'
  can0  TX - -  18DA28F1   [8]  03 22 08 16 00 00 00 00   '."......'
  can0  TX - -  18DA28F1   [8]  03 22 08 16 00 00 00 00   '."......'
  can0  TX - -  18DA28F1   [8]  03 22 08 16 00 00 00 00   '."......'
  can0  TX - -  18DA28F1   [8]  03 22 08 16 00 00 00 00   '."......'
  can0  TX - -  18DA28F1   [8]  03 22 08 16 00 00 00 00   '."......'
  can0  TX - -  18DA28F1   [8]  03 22 08 16 00 00 00 00   '."......'
  can0  TX - -  18DA28F1   [8]  03 22 08 16 00 00 00 00   '."......'
  can0  TX - -  18DA28F1   [8]  03 22 08 16 00 00 00 00   '."......'
  can0  TX - -  18DA28F1   [8]  03 22 08 16 00 00 00 00   '."......'
  can0  TX - -  18DA28F1   [8]  03 22 08 16 00 00 00 00   '."......'
  can0  TX - -  18DA28F1   [8]  03 22 08 16 00 00 00 00   '."......'
  can0  TX - -  18DA28F1   [8]  03 22 08 16 00 00 00 00   '."......'
  can0  TX - -  18DA28F1   [8]  30 00 00 00 00 00 00 00   '0.......'
  can0  RX - -  18DAF128   [8]  03 7F 22 31 00 00 00 00   '.."1....'
  can0  TX - -  18DA28F1   [8]  03 22 08 17 00 00 00 00   '."......'
  can0  TX - -  18DA28F1   [8]  03 22 08 17 00 00 00 00   '."......'
  can0  TX - -  18DA28F1   [8]  03 22 08 17 00 00 00 00   '."......'
  can0  TX - -  18DA28F1   [8]  03 22 08 17 00 00 00 00   '."......'
  can0  TX - -  18DA28F1   [8]  03 22 08 17 00 00 00 00   '."......'
  can0  TX - -  18DA28F1   [8]  03 22 08 17 00 00 00 00   '."......'
  can0  TX - -  18DA28F1   [8]  03 22 08 17 00 00 00 00   '."......'
  can0  TX - -  18DA28F1   [8]  03 22 08 17 00 00 00 00   '."......'
  can0  TX - -  18DA28F1   [8]  03 22 08 17 00 00 00 00   '."......'
  can0  TX - -  18DA28F1   [8]  03 22 08 17 00 00 00 00   '."......'
  can0  TX - -  18DA28F1   [8]  03 22 08 17 00 00 00 00   '."......'
  can0  TX - -  18DA28F1   [8]  03 22 08 17 00 00 00 00   '."......'
  can0  TX - -  18DA28F1   [8]  03 22 08 17 00 00 00 00   '."......'
  can0  TX - -  18DA28F1   [8]  03 22 08 17 00 00 00 00   '."......'
  can0  TX - -  18DA28F1   [8]  03 22 08 17 00 00 00 00   '."......'
  can0  TX - -  18DA28F1   [8]  03 22 08 17 00 00 00 00   '."......'
  can0  TX - -  18DA28F1   [8]  03 22 08 17 00 00 00 00   '."......'
  can0  TX - -  18DA28F1   [8]  03 22 08 17 00 00 00 00   '."......'
  can0  TX - -  18DA28F1   [8]  03 22 08 17 00 00 00 00   '."......'
  can0  TX - -  18DA28F1   [8]  03 22 08 17 00 00 00 00   '."......'
  can0  TX - -  18DA28F1   [8]  03 22 08 17 00 00 00 00   '."......'
  can0  RX - -  18DAF128   [8]  03 7F 22 31 00 00 00 00   '.."1....'
  can0  TX - -  18DA28F1   [8]  03 22 08 17 00 00 00 00   '."......'
  can0  TX - -  18DA28F1   [8]  03 22 08 17 00 00 00 00   '."......'
  can0  TX - -  18DA28F1   [8]  03 22 08 17 00 00 00 00   '."......'
  can0  TX - -  18DA28F1   [8]  30 00 00 00 00 00 00 00   '0.......'
  can0  RX - -  18DAF128   [8]  03 7F 22 31 00 00 00 00   '.."1....'
  can0  TX - -  18DA28F1   [8]  03 22 08 18 00 00 00 00   '."......'
  can0  TX - -  18DA28F1   [8]  03 22 08 18 00 00 00 00   '."......'
  can0  TX - -  18DA28F1   [8]  03 22 08 18 00 00 00 00   '."......'
  can0  TX - -  18DA28F1   [8]  03 22 08 18 00 00 00 00   '."......'
  can0  TX - -  18DA28F1   [8]  03 22 08 18 00 00 00 00   '."......'
  can0  TX - -  18DA28F1   [8]  03 22 08 18 00 00 00 00   '."......'
  can0  TX - -  18DA28F1   [8]  03 22 08 18 00 00 00 00   '."......'
  can0  TX - -  18DA28F1   [8]  03 22 08 18 00 00 00 00   '."......'
  can0  TX - -  18DA28F1   [8]  03 22 08 18 00 00 00 00   '."......'
  can0  TX - -  18DA28F1   [8]  30 00 00 00 00 00 00 00   '0.......'
  can0  RX - -  18DAF128   [8]  03 7F 22 31 00 00 00 00   '.."1....'
  can0  TX - -  18DA28F1   [8]  03 22 08 19 00 00 00 00   '."......'
  can0  TX - -  18DA28F1   [8]  03 22 08 19 00 00 00 00   '."......'
  can0  TX - -  18DA28F1   [8]  03 22 08 19 00 00 00 00   '."......'
  can0  TX - -  18DA28F1   [8]  03 22 08 19 00 00 00 00   '."......'
  can0  TX - -  18DA28F1   [8]  03 22 08 19 00 00 00 00   '."......'
  can0  TX - -  18DA28F1   [8]  03 22 08 19 00 00 00 00   '."......'
  can0  TX - -  18DA28F1   [8]  03 22 08 19 00 00 00 00   '."......'
  can0  TX - -  18DA28F1   [8]  03 22 08 19 00 00 00 00   '."......'
  can0  TX - -  18DA28F1   [8]  03 22 08 19 00 00 00 00   '."......'
  can0  TX - -  18DA28F1   [8]  03 22 08 19 00 00 00 00   '."......'
  can0  TX - -  18DA28F1   [8]  03 22 08 19 00 00 00 00   '."......'
  can0  TX - -  18DA28F1   [8]  30 00 00 00 00 00 00 00   '0.......'
  can0  RX - -  18DAF128   [8]  03 7F 22 31 00 00 00 00   '.."1....'
  can0  TX - -  18DA28F1   [8]  03 22 08 1A 00 00 00 00   '."......'
  can0  TX - -  18DA28F1   [8]  03 22 08 1A 00 00 00 00   '."......'
  can0  TX - -  18DA28F1   [8]  03 22 08 1A 00 00 00 00   '."......'
  can0  TX - -  18DA28F1   [8]  03 22 08 1A 00 00 00 00   '."......'
  can0  TX - -  18DA28F1   [8]  03 22 08 1A 00 00 00 00   '."......'
  can0  TX - -  18DA28F1   [8]  03 22 08 1A 00 00 00 00   '."......'
  can0  TX - -  18DA28F1   [8]  03 22 08 1A 00 00 00 00   '."......'
  can0  TX - -  18DA28F1   [8]  03 22 08 1A 00 00 00 00   '."......'
  can0  TX - -  18DA28F1   [8]  03 22 08 1A 00 00 00 00   '."......'
  can0  TX - -  18DA28F1   [8]  03 22 08 1A 00 00 00 00   '."......'
  can0  TX - -  18DA28F1   [8]  30 00 00 00 00 00 00 00   '0.......'
  can0  RX - -  18DAF128   [8]  03 7F 22 31 00 00 00 00   '.."1....'
  can0  TX - -  18DA28F1   [8]  03 22 08 1B 00 00 00 00   '."......'
  can0  TX - -  18DA28F1   [8]  03 22 08 1B 00 00 00 00   '."......'
  can0  TX - -  18DA28F1   [8]  03 22 08 1B 00 00 00 00   '."......'
  can0  TX - -  18DA28F1   [8]  03 22 08 1B 00 00 00 00   '."......'
  can0  TX - -  18DA28F1   [8]  03 22 08 1B 00 00 00 00   '."......'
  can0  TX - -  18DA28F1   [8]  03 22 08 1B 00 00 00 00   '."......'
  can0  TX - -  18DA28F1   [8]  03 22 08 1B 00 00 00 00   '."......'
  can0  TX - -  18DA28F1   [8]  03 22 08 1B 00 00 00 00   '."......'
  can0  TX - -  18DA28F1   [8]  30 00 00 00 00 00 00 00   '0.......'
  can0  RX - -  18DAF128   [8]  03 7F 22 31 00 00 00 00   '.."1....'
  can0  TX - -  18DA28F1   [8]  03 22 08 1C 00 00 00 00   '."......'
  can0  TX - -  18DA28F1   [8]  03 22 08 1C 00 00 00 00   '."......'
  can0  TX - -  18DA28F1   [8]  03 22 08 1C 00 00 00 00   '."......'
  can0  TX - -  18DA28F1   [8]  03 22 08 1C 00 00 00 00   '."......'
  can0  TX - -  18DA28F1   [8]  03 22 08 1C 00 00 00 00   '."......'
  can0  TX - -  18DA28F1   [8]  03 22 08 1C 00 00 00 00   '."......'
  can0  TX - -  18DA28F1   [8]  03 22 08 1C 00 00 00 00   '."......'
  can0  TX - -  18DA28F1   [8]  03 22 08 1C 00 00 00 00   '."......'
  can0  TX - -  18DA28F1   [8]  30 00 00 00 00 00 00 00   '0.......'
  can0  RX - -  18DAF128   [8]  03 7F 22 31 00 00 00 00   '.."1....'
  can0  TX - -  18DA28F1   [8]  03 22 08 1D 00 00 00 00   '."......'
  can0  TX - -  18DA28F1   [8]  03 22 08 1D 00 00 00 00   '."......'
  can0  TX - -  18DA28F1   [8]  03 22 08 1D 00 00 00 00   '."......'
  can0  TX - -  18DA28F1   [8]  03 22 08 1D 00 00 00 00   '."......'
  can0  TX - -  18DA28F1   [8]  03 22 08 1D 00 00 00 00   '."......'
  can0  TX - -  18DA28F1   [8]  03 22 08 1D 00 00 00 00   '."......'
  can0  TX - -  18DA28F1   [8]  03 22 08 1D 00 00 00 00   '."......'
  can0  TX - -  18DA28F1   [8]  03 22 08 1D 00 00 00 00   '."......'
  can0  TX - -  18DA28F1   [8]  03 22 08 1D 00 00 00 00   '."......'
  can0  TX - -  18DA28F1   [8]  30 00 00 00 00 00 00 00   '0.......'
  can0  RX - -  18DAF128   [8]  03 7F 22 31 00 00 00 00   '.."1....'
  can0  TX - -  18DA28F1   [8]  03 22 08 1E 00 00 00 00   '."......'
  can0  TX - -  18DA28F1   [8]  03 22 08 1E 00 00 00 00   '."......'
  can0  TX - -  18DA28F1   [8]  03 22 08 1E 00 00 00 00   '."......'
  can0  TX - -  18DA28F1   [8]  03 22 08 1E 00 00 00 00   '."......'
  can0  TX - -  18DA28F1   [8]  03 22 08 1E 00 00 00 00   '."......'
  can0  TX - -  18DA28F1   [8]  03 22 08 1E 00 00 00 00   '."......'
  can0  TX - -  18DA28F1   [8]  03 22 08 1E 00 00 00 00   '."......'
  can0  TX - -  18DA28F1   [8]  03 22 08 1E 00 00 00 00   '."......'
  can0  TX - -  18DA28F1   [8]  03 22 08 1E 00 00 00 00   '."......'
  can0  TX - -  18DA28F1   [8]  03 22 08 1E 00 00 00 00   '."......'
  can0  TX - -  18DA28F1   [8]  30 00 00 00 00 00 00 00   '0.......'
  can0  RX - -  18DAF128   [8]  03 7F 22 31 00 00 00 00   '.."1....'
  can0  TX - -  18DA28F1   [8]  03 22 08 1F 00 00 00 00   '."......'
  can0  TX - -  18DA28F1   [8]  03 22 08 1F 00 00 00 00   '."......'
  can0  TX - -  18DA28F1   [8]  03 22 08 1F 00 00 00 00   '."......'
  can0  TX - -  18DA28F1   [8]  03 22 08 1F 00 00 00 00   '."......'
  can0  TX - -  18DA28F1   [8]  03 22 08 1F 00 00 00 00   '."......'
  can0  TX - -  18DA28F1   [8]  03 22 08 1F 00 00 00 00   '."......'
  can0  TX - -  18DA28F1   [8]  03 22 08 1F 00 00 00 00   '."......'
  can0  TX - -  18DA28F1   [8]  03 22 08 1F 00 00 00 00   '."......'
  can0  TX - -  18DA28F1   [8]  03 22 08 1F 00 00 00 00   '."......'
  can0  TX - -  18DA28F1   [8]  03 22 08 1F 00 00 00 00   '."......'
  can0  TX - -  18DA28F1   [8]  03 22 08 1F 00 00 00 00   '."......'
  can0  TX - -  18DA28F1   [8]  03 22 08 1F 00 00 00 00   '."......'
  can0  TX - -  18DA28F1   [8]  03 22 08 1F 00 00 00 00   '."......'
  can0  TX - -  18DA28F1   [8]  03 22 08 1F 00 00 00 00   '."......'
  can0  TX - -  18DA28F1   [8]  03 22 08 1F 00 00 00 00   '."......'
  can0  TX - -  18DA28F1   [8]  03 22 08 1F 00 00 00 00   '."......'
  can0  TX - -  18DA28F1   [8]  03 22 08 1F 00 00 00 00   '."......'
  can0  TX - -  18DA28F1   [8]  03 22 08 1F 00 00 00 00   '."......'
  can0  TX - -  18DA28F1   [8]  03 22 08 1F 00 00 00 00   '."......'
  can0  TX - -  18DA28F1   [8]  03 22 08 1F 00 00 00 00   '."......'
  can0  TX - -  18DA28F1   [8]  03 22 08 1F 00 00 00 00   '."......'
  can0  RX - -  18DAF128   [8]  03 7F 22 31 00 00 00 00   '.."1....'
  can0  TX - -  18DA28F1   [8]  03 22 08 1F 00 00 00 00   '."......'
  can0  TX - -  18DA28F1   [8]  03 22 08 1F 00 00 00 00   '."......'
  can0  TX - -  18DA28F1   [8]  03 22 08 1F 00 00 00 00   '."......'
  can0  TX - -  18DA28F1   [8]  03 22 08 1F 00 00 00 00   '."......'
  can0  TX - -  18DA28F1   [8]  03 22 08 1F 00 00 00 00   '."......'
  can0  TX - -  18DA28F1   [8]  30 00 00 00 00 00 00 00   '0.......'
  can0  RX - -  18DAF128   [8]  03 7F 22 31 00 00 00 00   '.."1....'
  can0  TX - -  18DA28F1   [8]  03 22 08 20 00 00 00 00   '.". ....'
  can0  TX - -  18DA28F1   [8]  03 22 08 20 00 00 00 00   '.". ....'
  can0  TX - -  18DA28F1   [8]  03 22 08 20 00 00 00 00   '.". ....'
  can0  TX - -  18DA28F1   [8]  03 22 08 20 00 00 00 00   '.". ....'
  can0  TX - -  18DA28F1   [8]  03 22 08 20 00 00 00 00   '.". ....'
  can0  TX - -  18DA28F1   [8]  03 22 08 20 00 00 00 00   '.". ....'
  can0  TX - -  18DA28F1   [8]  03 22 08 20 00 00 00 00   '.". ....'
  can0  TX - -  18DA28F1   [8]  03 22 08 20 00 00 00 00   '.". ....'
  can0  TX - -  18DA28F1   [8]  30 00 00 00 00 00 00 00   '0.......'
  can0  RX - -  18DAF128   [8]  03 7F 22 31 00 00 00 00   '.."1....'
  can0  TX - -  18DA28F1   [8]  03 22 08 21 00 00 00 00   '.".!....'
  can0  TX - -  18DA28F1   [8]  03 22 08 21 00 00 00 00   '.".!....'
  can0  TX - -  18DA28F1   [8]  03 22 08 21 00 00 00 00   '.".!....'
  can0  TX - -  18DA28F1   [8]  03 22 08 21 00 00 00 00   '.".!....'
  can0  TX - -  18DA28F1   [8]  03 22 08 21 00 00 00 00   '.".!....'
  can0  TX - -  18DA28F1   [8]  03 22 08 21 00 00 00 00   '.".!....'
  can0  TX - -  18DA28F1   [8]  03 22 08 21 00 00 00 00   '.".!....'
  can0  TX - -  18DA28F1   [8]  03 22 08 21 00 00 00 00   '.".!....'
  can0  TX - -  18DA28F1   [8]  30 00 00 00 00 00 00 00   '0.......'
  can0  RX - -  18DAF128   [8]  03 7F 22 31 00 00 00 00   '.."1....'
  can0  TX - -  18DA28F1   [8]  03 22 08 22 00 00 00 00   '."."....'
  can0  TX - -  18DA28F1   [8]  03 22 08 22 00 00 00 00   '."."....'
  can0  TX - -  18DA28F1   [8]  03 22 08 22 00 00 00 00   '."."....'
  can0  TX - -  18DA28F1   [8]  03 22 08 22 00 00 00 00   '."."....'
  can0  TX - -  18DA28F1   [8]  03 22 08 22 00 00 00 00   '."."....'
  can0  TX - -  18DA28F1   [8]  03 22 08 22 00 00 00 00   '."."....'
  can0  TX - -  18DA28F1   [8]  03 22 08 22 00 00 00 00   '."."....'
  can0  TX - -  18DA28F1   [8]  03 22 08 22 00 00 00 00   '."."....'
  can0  TX - -  18DA28F1   [8]  03 22 08 22 00 00 00 00   '."."....'
  can0  TX - -  18DA28F1   [8]  30 00 00 00 00 00 00 00   '0.......'
  can0  RX - -  18DAF128   [8]  03 7F 22 31 00 00 00 00   '.."1....'
  can0  TX - -  18DA28F1   [8]  03 22 08 23 00 00 00 00   '.".#....'
  can0  TX - -  18DA28F1   [8]  03 22 08 23 00 00 00 00   '.".#....'
  can0  TX - -  18DA28F1   [8]  03 22 08 23 00 00 00 00   '.".#....'
  can0  TX - -  18DA28F1   [8]  03 22 08 23 00 00 00 00   '.".#....'
  can0  TX - -  18DA28F1   [8]  03 22 08 23 00 00 00 00   '.".#....'
  can0  TX - -  18DA28F1   [8]  03 22 08 23 00 00 00 00   '.".#....'
  can0  TX - -  18DA28F1   [8]  03 22 08 23 00 00 00 00   '.".#....'
  can0  TX - -  18DA28F1   [8]  03 22 08 23 00 00 00 00   '.".#....'
  can0  TX - -  18DA28F1   [8]  03 22 08 23 00 00 00 00   '.".#....'
  can0  TX - -  18DA28F1   [8]  03 22 08 23 00 00 00 00   '.".#....'
  can0  TX - -  18DA28F1   [8]  03 22 08 23 00 00 00 00   '.".#....'
  can0  TX - -  18DA28F1   [8]  03 22 08 23 00 00 00 00   '.".#....'
  can0  TX - -  18DA28F1   [8]  30 00 00 00 00 00 00 00   '0.......'
  can0  RX - -  18DAF128   [8]  03 7F 22 31 00 00 00 00   '.."1....'
  can0  TX - -  18DA28F1   [8]  03 22 08 24 00 00 00 00   '.".$....'
  can0  TX - -  18DA28F1   [8]  03 22 08 24 00 00 00 00   '.".$....'
  can0  TX - -  18DA28F1   [8]  03 22 08 24 00 00 00 00   '.".$....'
  can0  TX - -  18DA28F1   [8]  03 22 08 24 00 00 00 00   '.".$....'
  can0  TX - -  18DA28F1   [8]  03 22 08 24 00 00 00 00   '.".$....'
  can0  TX - -  18DA28F1   [8]  03 22 08 24 00 00 00 00   '.".$....'
  can0  TX - -  18DA28F1   [8]  03 22 08 24 00 00 00 00   '.".$....'
  can0  TX - -  18DA28F1   [8]  03 22 08 24 00 00 00 00   '.".$....'
  can0  TX - -  18DA28F1   [8]  30 00 00 00 00 00 00 00   '0.......'
  can0  RX - -  18DAF128   [8]  03 7F 22 31 00 00 00 00   '.."1....'
  can0  TX - -  18DA28F1   [8]  03 22 08 25 00 00 00 00   '.".%....'
  can0  TX - -  18DA28F1   [8]  03 22 08 25 00 00 00 00   '.".%....'
  can0  TX - -  18DA28F1   [8]  03 22 08 25 00 00 00 00   '.".%....'
  can0  TX - -  18DA28F1   [8]  03 22 08 25 00 00 00 00   '.".%....'
  can0  TX - -  18DA28F1   [8]  03 22 08 25 00 00 00 00   '.".%....'
  can0  TX - -  18DA28F1   [8]  03 22 08 25 00 00 00 00   '.".%....'
  can0  TX - -  18DA28F1   [8]  03 22 08 25 00 00 00 00   '.".%....'
  can0  TX - -  18DA28F1   [8]  03 22 08 25 00 00 00 00   '.".%....'
  can0  TX - -  18DA28F1   [8]  30 00 00 00 00 00 00 00   '0.......'
  can0  RX - -  18DAF128   [8]  03 7F 22 31 00 00 00 00   '.."1....'
  can0  TX - -  18DA28F1   [8]  03 22 08 26 00 00 00 00   '.".&....'
  can0  TX - -  18DA28F1   [8]  03 22 08 26 00 00 00 00   '.".&....'
  can0  TX - -  18DA28F1   [8]  03 22 08 26 00 00 00 00   '.".&....'
  can0  TX - -  18DA28F1   [8]  03 22 08 26 00 00 00 00   '.".&....'
  can0  TX - -  18DA28F1   [8]  03 22 08 26 00 00 00 00   '.".&....'
  can0  TX - -  18DA28F1   [8]  03 22 08 26 00 00 00 00   '.".&....'
  can0  TX - -  18DA28F1   [8]  03 22 08 26 00 00 00 00   '.".&....'
  can0  TX - -  18DA28F1   [8]  03 22 08 26 00 00 00 00   '.".&....'
  can0  TX - -  18DA28F1   [8]  30 00 00 00 00 00 00 00   '0.......'
  can0  RX - -  18DAF128   [8]  03 7F 22 31 00 00 00 00   '.."1....'
  can0  TX - -  18DA28F1   [8]  03 22 08 27 00 00 00 00   '.".'....'
  can0  TX - -  18DA28F1   [8]  03 22 08 27 00 00 00 00   '.".'....'
  can0  TX - -  18DA28F1   [8]  03 22 08 27 00 00 00 00   '.".'....'
  can0  TX - -  18DA28F1   [8]  03 22 08 27 00 00 00 00   '.".'....'
  can0  TX - -  18DA28F1   [8]  03 22 08 27 00 00 00 00   '.".'....'
  can0  TX - -  18DA28F1   [8]  03 22 08 27 00 00 00 00   '.".'....'
  can0  TX - -  18DA28F1   [8]  03 22 08 27 00 00 00 00   '.".'....'
  can0  TX - -  18DA28F1   [8]  03 22 08 27 00 00 00 00   '.".'....'
  can0  TX - -  18DA28F1   [8]  03 22 08 27 00 00 00 00   '.".'....'
  can0  TX - -  18DA28F1   [8]  30 00 00 00 00 00 00 00   '0.......'
  can0  RX - -  18DAF128   [8]  03 7F 22 31 00 00 00 00   '.."1....'
  can0  TX - -  18DA28F1   [8]  03 22 08 28 00 00 00 00   '.".(....'
  can0  TX - -  18DA28F1   [8]  03 22 08 28 00 00 00 00   '.".(....'
  can0  TX - -  18DA28F1   [8]  03 22 08 28 00 00 00 00   '.".(....'
  can0  TX - -  18DA28F1   [8]  03 22 08 28 00 00 00 00   '.".(....'
  can0  TX - -  18DA28F1   [8]  03 22 08 28 00 00 00 00   '.".(....'
  can0  TX - -  18DA28F1   [8]  03 22 08 28 00 00 00 00   '.".(....'
  can0  TX - -  18DA28F1   [8]  03 22 08 28 00 00 00 00   '.".(....'
  can0  TX - -  18DA28F1   [8]  03 22 08 28 00 00 00 00   '.".(....'
  can0  TX - -  18DA28F1   [8]  03 22 08 28 00 00 00 00   '.".(....'
  can0  TX - -  18DA28F1   [8]  03 22 08 28 00 00 00 00   '.".(....'
  can0  TX - -  18DA28F1   [8]  30 00 00 00 00 00 00 00   '0.......'
  can0  RX - -  18DAF128   [8]  03 7F 22 31 00 00 00 00   '.."1....'
  can0  TX - -  18DA28F1   [8]  03 22 08 29 00 00 00 00   '.".)....'
  can0  TX - -  18DA28F1   [8]  03 22 08 29 00 00 00 00   '.".)....'
  can0  TX - -  18DA28F1   [8]  03 22 08 29 00 00 00 00   '.".)....'
  can0  TX - -  18DA28F1   [8]  03 22 08 29 00 00 00 00   '.".)....'
  can0  TX - -  18DA28F1   [8]  03 22 08 29 00 00 00 00   '.".)....'
  can0  TX - -  18DA28F1   [8]  03 22 08 29 00 00 00 00   '.".)....'
  can0  TX - -  18DA28F1   [8]  03 22 08 29 00 00 00 00   '.".)....'
  can0  TX - -  18DA28F1   [8]  03 22 08 29 00 00 00 00   '.".)....'
  can0  TX - -  18DA28F1   [8]  03 22 08 29 00 00 00 00   '.".)....'
  can0  TX - -  18DA28F1   [8]  03 22 08 29 00 00 00 00   '.".)....'
  can0  TX - -  18DA28F1   [8]  03 22 08 29 00 00 00 00   '.".)....'
  can0  TX - -  18DA28F1   [8]  03 22 08 29 00 00 00 00   '.".)....'
  can0  TX - -  18DA28F1   [8]  03 22 08 29 00 00 00 00   '.".)....'
  can0  TX - -  18DA28F1   [8]  03 22 08 29 00 00 00 00   '.".)....'
  can0  TX - -  18DA28F1   [8]  03 22 08 29 00 00 00 00   '.".)....'
  can0  TX - -  18DA28F1   [8]  03 22 08 29 00 00 00 00   '.".)....'
  can0  TX - -  18DA28F1   [8]  03 22 08 29 00 00 00 00   '.".)....'
  can0  TX - -  18DA28F1   [8]  03 22 08 29 00 00 00 00   '.".)....'
  can0  TX - -  18DA28F1   [8]  03 22 08 29 00 00 00 00   '.".)....'
  can0  RX - -  18DAF128   [8]  03 7F 22 31 00 00 00 00   '.."1....'
  can0  TX - -  18DA28F1   [8]  03 22 08 29 00 00 00 00   '.".)....'
  can0  TX - -  18DA28F1   [8]  03 22 08 29 00 00 00 00   '.".)....'
  can0  TX - -  18DA28F1   [8]  03 22 08 29 00 00 00 00   '.".)....'
  can0  TX - -  18DA28F1   [8]  03 22 08 29 00 00 00 00   '.".)....'
  can0  TX - -  18DA28F1   [8]  03 22 08 29 00 00 00 00   '.".)....'
  can0  TX - -  18DA28F1   [8]  03 22 08 29 00 00 00 00   '.".)....'
  can0  TX - -  18DA28F1   [8]  03 22 08 29 00 00 00 00   '.".)....'
  can0  TX - -  18DA28F1   [8]  03 22 08 29 00 00 00 00   '.".)....'
  can0  TX - -  18DA28F1   [8]  03 22 08 29 00 00 00 00   '.".)....'
  can0  TX - -  18DA28F1   [8]  03 22 08 29 00 00 00 00   '.".)....'
  can0  TX - -  18DA28F1   [8]  03 22 08 29 00 00 00 00   '.".)....'
  can0  TX - -  18DA28F1   [8]  03 22 08 29 00 00 00 00   '.".)....'
  can0  TX - -  18DA28F1   [8]  03 22 08 29 00 00 00 00   '.".)....'
  can0  TX - -  18DA28F1   [8]  03 22 08 29 00 00 00 00   '.".)....'
  can0  TX - -  18DA28F1   [8]  03 22 08 29 00 00 00 00   '.".)....'
  can0  TX - -  18DA28F1   [8]  03 22 08 29 00 00 00 00   '.".)....'
  can0  TX - -  18DA28F1   [8]  03 22 08 29 00 00 00 00   '.".)....'
  can0  TX - -  18DA28F1   [8]  03 22 08 29 00 00 00 00   '.".)....'
  can0  TX - -  18DA28F1   [8]  03 22 08 29 00 00 00 00   '.".)....'
  can0  TX - -  18DA28F1   [8]  03 22 08 29 00 00 00 00   '.".)....'
  can0  RX - -  18DAF128   [8]  03 7F 22 31 00 00 00 00   '.."1....'
  can0  TX - -  18DA28F1   [8]  03 22 08 29 00 00 00 00   '.".)....'
  can0  TX - -  18DA28F1   [8]  03 22 08 29 00 00 00 00   '.".)....'
  can0  TX - -  18DA28F1   [8]  03 22 08 29 00 00 00 00   '.".)....'
  can0  TX - -  18DA28F1   [8]  03 22 08 29 00 00 00 00   '.".)....'
  can0  TX - -  18DA28F1   [8]  03 22 08 29 00 00 00 00   '.".)....'
  can0  TX - -  18DA28F1   [8]  03 22 08 29 00 00 00 00   '.".)....'
  can0  TX - -  18DA28F1   [8]  03 22 08 29 00 00 00 00   '.".)....'
  can0  TX - -  18DA28F1   [8]  03 22 08 29 00 00 00 00   '.".)....'
  can0  TX - -  18DA28F1   [8]  03 22 08 29 00 00 00 00   '.".)....'
  can0  TX - -  18DA28F1   [8]  03 22 08 29 00 00 00 00   '.".)....'
  can0  TX - -  18DA28F1   [8]  03 22 08 29 00 00 00 00   '.".)....'
  can0  TX - -  18DA28F1   [8]  03 22 08 29 00 00 00 00   '.".)....'
  can0  TX - -  18DA28F1   [8]  03 22 08 29 00 00 00 00   '.".)....'
  can0  TX - -  18DA28F1   [8]  03 22 08 29 00 00 00 00   '.".)....'
  can0  TX - -  18DA28F1   [8]  03 22 08 29 00 00 00 00   '.".)....'
  can0  TX - -  18DA28F1   [8]  03 22 08 29 00 00 00 00   '.".)....'
  can0  TX - -  18DA28F1   [8]  03 22 08 29 00 00 00 00   '.".)....'
  can0  TX - -  18DA28F1   [8]  03 22 08 29 00 00 00 00   '.".)....'
  can0  TX - -  18DA28F1   [8]  03 22 08 29 00 00 00 00   '.".)....'
  can0  TX - -  18DA28F1   [8]  03 22 08 29 00 00 00 00   '.".)....'
  can0  RX - -  18DAF128   [8]  03 7F 22 31 00 00 00 00   '.."1....'
  can0  TX - -  18DA28F1   [8]  03 22 08 29 00 00 00 00   '.".)....'
  can0  TX - -  18DA28F1   [8]  03 22 08 29 00 00 00 00   '.".)....'
  can0  TX - -  18DA28F1   [8]  03 22 08 29 00 00 00 00   '.".)....'
  can0  TX - -  18DA28F1   [8]  03 22 08 29 00 00 00 00   '.".)....'
  can0  TX - -  18DA28F1   [8]  03 22 08 29 00 00 00 00   '.".)....'
  can0  TX - -  18DA28F1   [8]  03 22 08 29 00 00 00 00   '.".)....'
  can0  TX - -  18DA28F1   [8]  03 22 08 29 00 00 00 00   '.".)....'
  can0  TX - -  18DA28F1   [8]  03 22 08 29 00 00 00 00   '.".)....'
  can0  TX - -  18DA28F1   [8]  03 22 08 29 00 00 00 00   '.".)....'
  can0  TX - -  18DA28F1   [8]  03 22 08 29 00 00 00 00   '.".)....'
  can0  TX - -  18DA28F1   [8]  03 22 08 29 00 00 00 00   '.".)....'
  can0  TX - -  18DA28F1   [8]  03 22 08 29 00 00 00 00   '.".)....'
  can0  TX - -  18DA28F1   [8]  03 22 08 29 00 00 00 00   '.".)....'
  can0  TX - -  18DA28F1   [8]  03 22 08 29 00 00 00 00   '.".)....'
  can0  TX - -  18DA28F1   [8]  03 22 08 29 00 00 00 00   '.".)....'
  can0  TX - -  18DA28F1   [8]  03 22 08 29 00 00 00 00   '.".)....'
  can0  TX - -  18DA28F1   [8]  03 22 08 29 00 00 00 00   '.".)....'
  can0  TX - -  18DA28F1   [8]  03 22 08 29 00 00 00 00   '.".)....'
  can0  TX - -  18DA28F1   [8]  03 22 08 29 00 00 00 00   '.".)....'
  can0  RX - -  18DAF128   [8]  03 7F 22 31 00 00 00 00   '.."1....'
  can0  TX - -  18DA28F1   [8]  03 22 08 29 00 00 00 00   '.".)....'
  can0  TX - -  18DA28F1   [8]  03 22 08 29 00 00 00 00   '.".)....'
  can0  TX - -  18DA28F1   [8]  03 22 08 29 00 00 00 00   '.".)....'
  can0  TX - -  18DA28F1   [8]  03 22 08 29 00 00 00 00   '.".)....'
  can0  TX - -  18DA28F1   [8]  03 22 08 29 00 00 00 00   '.".)....'
  can0  TX - -  18DA28F1   [8]  03 22 08 29 00 00 00 00   '.".)....'
  can0  TX - -  18DA28F1   [8]  03 22 08 29 00 00 00 00   '.".)....'
  can0  TX - -  18DA28F1   [8]  03 22 08 29 00 00 00 00   '.".)....'
  can0  TX - -  18DA28F1   [8]  03 22 08 29 00 00 00 00   '.".)....'
  can0  TX - -  18DA28F1   [8]  03 22 08 29 00 00 00 00   '.".)....'
  can0  TX - -  18DA28F1   [8]  03 22 08 29 00 00 00 00   '.".)....'
  can0  TX - -  18DA28F1   [8]  03 22 08 29 00 00 00 00   '.".)....'
  can0  TX - -  18DA28F1   [8]  03 22 08 29 00 00 00 00   '.".)....'
  can0  TX - -  18DA28F1   [8]  03 22 08 29 00 00 00 00   '.".)....'
  can0  TX - -  18DA28F1   [8]  03 22 08 29 00 00 00 00   '.".)....'
  can0  TX - -  18DA28F1   [8]  03 22 08 29 00 00 00 00   '.".)....'
  can0  TX - -  18DA28F1   [8]  03 22 08 29 00 00 00 00   '.".)....'
  can0  TX - -  18DA28F1   [8]  03 22 08 29 00 00 00 00   '.".)....'
  can0  TX - -  18DA28F1   [8]  03 22 08 29 00 00 00 00   '.".)....'
  can0  RX - -  18DAF128   [8]  03 7F 22 31 00 00 00 00   '.."1....'
  can0  TX - -  18DA28F1   [8]  03 22 08 29 00 00 00 00   '.".)....'
  can0  TX - -  18DA28F1   [8]  03 22 08 29 00 00 00 00   '.".)....'
  can0  TX - -  18DA28F1   [8]  03 22 08 29 00 00 00 00   '.".)....'
  can0  TX - -  18DA28F1   [8]  03 22 08 29 00 00 00 00   '.".)....'
  can0  TX - -  18DA28F1   [8]  03 22 08 29 00 00 00 00   '.".)....'
  can0  TX - -  18DA28F1   [8]  03 22 08 29 00 00 00 00   '.".)....'
  can0  TX - -  18DA28F1   [8]  03 22 08 29 00 00 00 00   '.".)....'
  can0  TX - -  18DA28F1   [8]  03 22 08 29 00 00 00 00   '.".)....'
  can0  TX - -  18DA28F1   [8]  03 22 08 29 00 00 00 00   '.".)....'
  can0  TX - -  18DA28F1   [8]  03 22 08 29 00 00 00 00   '.".)....'
  can0  TX - -  18DA28F1   [8]  03 22 08 29 00 00 00 00   '.".)....'
  can0  TX - -  18DA28F1   [8]  03 22 08 29 00 00 00 00   '.".)....'
  can0  TX - -  18DA28F1   [8]  03 22 08 29 00 00 00 00   '.".)....'
  can0  TX - -  18DA28F1   [8]  03 22 08 29 00 00 00 00   '.".)....'
  can0  TX - -  18DA28F1   [8]  03 22 08 29 00 00 00 00   '.".)....'
  can0  TX - -  18DA28F1   [8]  03 22 08 29 00 00 00 00   '.".)....'
  can0  TX - -  18DA28F1   [8]  30 00 00 00 00 00 00 00   '0.......'
  can0  RX - -  18DAF128   [8]  03 7F 22 31 00 00 00 00   '.."1....'
  can0  TX - -  18DA28F1   [8]  03 22 08 2A 00 00 00 00   '.".*....'
  can0  TX - -  18DA28F1   [8]  03 22 08 2A 00 00 00 00   '.".*....'
  can0  TX - -  18DA28F1   [8]  03 22 08 2A 00 00 00 00   '.".*....'
  can0  TX - -  18DA28F1   [8]  03 22 08 2A 00 00 00 00   '.".*....'
  can0  TX - -  18DA28F1   [8]  03 22 08 2A 00 00 00 00   '.".*....'
  can0  TX - -  18DA28F1   [8]  03 22 08 2A 00 00 00 00   '.".*....'
  can0  TX - -  18DA28F1   [8]  03 22 08 2A 00 00 00 00   '.".*....'
  can0  TX - -  18DA28F1   [8]  03 22 08 2A 00 00 00 00   '.".*....'
  can0  TX - -  18DA28F1   [8]  30 00 00 00 00 00 00 00   '0.......'
  can0  RX - -  18DAF128   [8]  03 7F 22 31 00 00 00 00   '.."1....'
  can0  TX - -  18DA28F1   [8]  03 22 08 2B 00 00 00 00   '.".+....'
  can0  TX - -  18DA28F1   [8]  03 22 08 2B 00 00 00 00   '.".+....'
  can0  TX - -  18DA28F1   [8]  03 22 08 2B 00 00 00 00   '.".+....'
  can0  TX - -  18DA28F1   [8]  03 22 08 2B 00 00 00 00   '.".+....'
  can0  TX - -  18DA28F1   [8]  03 22 08 2B 00 00 00 00   '.".+....'
  can0  TX - -  18DA28F1   [8]  03 22 08 2B 00 00 00 00   '.".+....'
  can0  TX - -  18DA28F1   [8]  03 22 08 2B 00 00 00 00   '.".+....'
  can0  TX - -  18DA28F1   [8]  03 22 08 2B 00 00 00 00   '.".+....'
  can0  TX - -  18DA28F1   [8]  03 22 08 2B 00 00 00 00   '.".+....'
  can0  TX - -  18DA28F1   [8]  03 22 08 2B 00 00 00 00   '.".+....'
  can0  TX - -  18DA28F1   [8]  03 22 08 2B 00 00 00 00   '.".+....'
  can0  TX - -  18DA28F1   [8]  03 22 08 2B 00 00 00 00   '.".+....'
  can0  TX - -  18DA28F1   [8]  30 00 00 00 00 00 00 00   '0.......'
  can0  RX - -  18DAF128   [8]  03 7F 22 31 00 00 00 00   '.."1....'
  can0  TX - -  18DA28F1   [8]  03 22 08 2C 00 00 00 00   '.".,....'
  can0  TX - -  18DA28F1   [8]  03 22 08 2C 00 00 00 00   '.".,....'
  can0  TX - -  18DA28F1   [8]  03 22 08 2C 00 00 00 00   '.".,....'
  can0  TX - -  18DA28F1   [8]  03 22 08 2C 00 00 00 00   '.".,....'
  can0  TX - -  18DA28F1   [8]  03 22 08 2C 00 00 00 00   '.".,....'
  can0  TX - -  18DA28F1   [8]  03 22 08 2C 00 00 00 00   '.".,....'
  can0  TX - -  18DA28F1   [8]  03 22 08 2C 00 00 00 00   '.".,....'
  can0  TX - -  18DA28F1   [8]  03 22 08 2C 00 00 00 00   '.".,....'
  can0  TX - -  18DA28F1   [8]  30 00 00 00 00 00 00 00   '0.......'
  can0  RX - -  18DAF128   [8]  03 7F 22 31 00 00 00 00   '.."1....'
  can0  TX - -  18DA28F1   [8]  03 22 08 2D 00 00 00 00   '.".-....'
  can0  TX - -  18DA28F1   [8]  03 22 08 2D 00 00 00 00   '.".-....'
  can0  TX - -  18DA28F1   [8]  03 22 08 2D 00 00 00 00   '.".-....'
  can0  TX - -  18DA28F1   [8]  03 22 08 2D 00 00 00 00   '.".-....'
  can0  TX - -  18DA28F1   [8]  03 22 08 2D 00 00 00 00   '.".-....'
  can0  TX - -  18DA28F1   [8]  03 22 08 2D 00 00 00 00   '.".-....'
  can0  TX - -  18DA28F1   [8]  03 22 08 2D 00 00 00 00   '.".-....'
  can0  TX - -  18DA28F1   [8]  03 22 08 2D 00 00 00 00   '.".-....'
  can0  TX - -  18DA28F1   [8]  03 22 08 2D 00 00 00 00   '.".-....'
  can0  TX - -  18DA28F1   [8]  03 22 08 2D 00 00 00 00   '.".-....'
  can0  TX - -  18DA28F1   [8]  03 22 08 2D 00 00 00 00   '.".-....'
  can0  TX - -  18DA28F1   [8]  03 22 08 2D 00 00 00 00   '.".-....'
  can0  TX - -  18DA28F1   [8]  03 22 08 2D 00 00 00 00   '.".-....'
  can0  TX - -  18DA28F1   [8]  03 22 08 2D 00 00 00 00   '.".-....'
  can0  TX - -  18DA28F1   [8]  03 22 08 2D 00 00 00 00   '.".-....'
  can0  TX - -  18DA28F1   [8]  03 22 08 2D 00 00 00 00   '.".-....'
  can0  TX - -  18DA28F1   [8]  30 00 00 00 00 00 00 00   '0.......'
  can0  RX - -  18DAF128   [8]  03 7F 22 31 00 00 00 00   '.."1....'
  can0  TX - -  18DA28F1   [8]  03 22 08 2E 00 00 00 00   '."......'
  can0  TX - -  18DA28F1   [8]  03 22 08 2E 00 00 00 00   '."......'
  can0  TX - -  18DA28F1   [8]  03 22 08 2E 00 00 00 00   '."......'
  can0  TX - -  18DA28F1   [8]  03 22 08 2E 00 00 00 00   '."......'
  can0  TX - -  18DA28F1   [8]  03 22 08 2E 00 00 00 00   '."......'
  can0  TX - -  18DA28F1   [8]  03 22 08 2E 00 00 00 00   '."......'
  can0  TX - -  18DA28F1   [8]  03 22 08 2E 00 00 00 00   '."......'
  can0  TX - -  18DA28F1   [8]  03 22 08 2E 00 00 00 00   '."......'
  can0  TX - -  18DA28F1   [8]  03 22 08 2E 00 00 00 00   '."......'
  can0  TX - -  18DA28F1   [8]  03 22 08 2E 00 00 00 00   '."......'
  can0  TX - -  18DA28F1   [8]  30 00 00 00 00 00 00 00   '0.......'
  can0  RX - -  18DAF128   [8]  03 7F 22 31 00 00 00 00   '.."1....'
  can0  TX - -  18DA28F1   [8]  03 22 08 2F 00 00 00 00   '."./....'
  can0  TX - -  18DA28F1   [8]  03 22 08 2F 00 00 00 00   '."./....'
  can0  TX - -  18DA28F1   [8]  03 22 08 2F 00 00 00 00   '."./....'
  can0  TX - -  18DA28F1   [8]  03 22 08 2F 00 00 00 00   '."./....'
  can0  TX - -  18DA28F1   [8]  03 22 08 2F 00 00 00 00   '."./....'
  can0  TX - -  18DA28F1   [8]  03 22 08 2F 00 00 00 00   '."./....'
  can0  TX - -  18DA28F1   [8]  03 22 08 2F 00 00 00 00   '."./....'
  can0  TX - -  18DA28F1   [8]  03 22 08 2F 00 00 00 00   '."./....'
  can0  TX - -  18DA28F1   [8]  03 22 08 2F 00 00 00 00   '."./....'
  can0  TX - -  18DA28F1   [8]  03 22 08 2F 00 00 00 00   '."./....'
  can0  TX - -  18DA28F1   [8]  03 22 08 2F 00 00 00 00   '."./....'
  can0  TX - -  18DA28F1   [8]  03 22 08 2F 00 00 00 00   '."./....'
  can0  TX - -  18DA28F1   [8]  30 00 00 00 00 00 00 00   '0.......'
  can0  RX - -  18DAF128   [8]  03 7F 22 31 00 00 00 00   '.."1....'
  can0  TX - -  18DA28F1   [8]  03 22 08 30 00 00 00 00   '.".0....'
  can0  TX - -  18DA28F1   [8]  03 22 08 30 00 00 00 00   '.".0....'
  can0  TX - -  18DA28F1   [8]  03 22 08 30 00 00 00 00   '.".0....'
  can0  TX - -  18DA28F1   [8]  03 22 08 30 00 00 00 00   '.".0....'
  can0  TX - -  18DA28F1   [8]  03 22 08 30 00 00 00 00   '.".0....'
  can0  TX - -  18DA28F1   [8]  03 22 08 30 00 00 00 00   '.".0....'
  can0  TX - -  18DA28F1   [8]  03 22 08 30 00 00 00 00   '.".0....'
  can0  TX - -  18DA28F1   [8]  03 22 08 30 00 00 00 00   '.".0....'
  can0  TX - -  18DA28F1   [8]  03 22 08 30 00 00 00 00   '.".0....'
  can0  TX - -  18DA28F1   [8]  03 22 08 30 00 00 00 00   '.".0....'
  can0  TX - -  18DA28F1   [8]  03 22 08 30 00 00 00 00   '.".0....'
  can0  TX - -  18DA28F1   [8]  03 22 08 30 00 00 00 00   '.".0....'
  can0  TX - -  18DA28F1   [8]  03 22 08 30 00 00 00 00   '.".0....'
  can0  TX - -  18DA28F1   [8]  03 22 08 30 00 00 00 00   '.".0....'
  can0  TX - -  18DA28F1   [8]  03 22 08 30 00 00 00 00   '.".0....'
  can0  TX - -  18DA28F1   [8]  03 22 08 30 00 00 00 00   '.".0....'
  can0  TX - -  18DA28F1   [8]  03 22 08 30 00 00 00 00   '.".0....'
  can0  TX - -  18DA28F1   [8]  03 22 08 30 00 00 00 00   '.".0....'
  can0  RX - -  18DAF128   [8]  03 7F 22 31 00 00 00 00   '.."1....'
  can0  TX - -  18DA28F1   [8]  03 22 08 30 00 00 00 00   '.".0....'
  can0  TX - -  18DA28F1   [8]  03 22 08 30 00 00 00 00   '.".0....'
  can0  TX - -  18DA28F1   [8]  03 22 08 30 00 00 00 00   '.".0....'
  can0  TX - -  18DA28F1   [8]  03 22 08 30 00 00 00 00   '.".0....'
  can0  TX - -  18DA28F1   [8]  03 22 08 30 00 00 00 00   '.".0....'
  can0  TX - -  18DA28F1   [8]  03 22 08 30 00 00 00 00   '.".0....'
  can0  TX - -  18DA28F1   [8]  03 22 08 30 00 00 00 00   '.".0....'
  can0  TX - -  18DA28F1   [8]  03 22 08 30 00 00 00 00   '.".0....'
  can0  TX - -  18DA28F1   [8]  03 22 08 30 00 00 00 00   '.".0....'
  can0  TX - -  18DA28F1   [8]  03 22 08 30 00 00 00 00   '.".0....'
  can0  TX - -  18DA28F1   [8]  03 22 08 30 00 00 00 00   '.".0....'
  can0  TX - -  18DA28F1   [8]  03 22 08 30 00 00 00 00   '.".0....'
  can0  TX - -  18DA28F1   [8]  03 22 08 30 00 00 00 00   '.".0....'
  can0  TX - -  18DA28F1   [8]  03 22 08 30 00 00 00 00   '.".0....'
  can0  TX - -  18DA28F1   [8]  03 22 08 30 00 00 00 00   '.".0....'
  can0  TX - -  18DA28F1   [8]  03 22 08 30 00 00 00 00   '.".0....'
  can0  TX - -  18DA28F1   [8]  03 22 08 30 00 00 00 00   '.".0....'
  can0  TX - -  18DA28F1   [8]  30 00 00 00 00 00 00 00   '0.......'
  can0  RX - -  18DAF128   [8]  03 7F 22 31 00 00 00 00   '.."1....'
  can0  TX - -  18DA28F1   [8]  03 22 08 31 00 00 00 00   '.".1....'
  can0  TX - -  18DA28F1   [8]  03 22 08 31 00 00 00 00   '.".1....'
  can0  TX - -  18DA28F1   [8]  03 22 08 31 00 00 00 00   '.".1....'
  can0  TX - -  18DA28F1   [8]  03 22 08 31 00 00 00 00   '.".1....'
  can0  TX - -  18DA28F1   [8]  03 22 08 31 00 00 00 00   '.".1....'
  can0  TX - -  18DA28F1   [8]  03 22 08 31 00 00 00 00   '.".1....'
  can0  TX - -  18DA28F1   [8]  03 22 08 31 00 00 00 00   '.".1....'
  can0  TX - -  18DA28F1   [8]  03 22 08 31 00 00 00 00   '.".1....'
  can0  TX - -  18DA28F1   [8]  30 00 00 00 00 00 00 00   '0.......'
  can0  RX - -  18DAF128   [8]  03 7F 22 31 00 00 00 00   '.."1....'
  can0  TX - -  18DA28F1   [8]  03 22 08 32 00 00 00 00   '.".2....'
  can0  TX - -  18DA28F1   [8]  03 22 08 32 00 00 00 00   '.".2....'
  can0  TX - -  18DA28F1   [8]  03 22 08 32 00 00 00 00   '.".2....'
  can0  TX - -  18DA28F1   [8]  03 22 08 32 00 00 00 00   '.".2....'
  can0  TX - -  18DA28F1   [8]  03 22 08 32 00 00 00 00   '.".2....'
  can0  TX - -  18DA28F1   [8]  03 22 08 32 00 00 00 00   '.".2....'
  can0  TX - -  18DA28F1   [8]  03 22 08 32 00 00 00 00   '.".2....'
  can0  TX - -  18DA28F1   [8]  03 22 08 32 00 00 00 00   '.".2....'
  can0  TX - -  18DA28F1   [8]  03 22 08 32 00 00 00 00   '.".2....'
  can0  TX - -  18DA28F1   [8]  30 00 00 00 00 00 00 00   '0.......'
  can0  RX - -  18DAF128   [8]  03 7F 22 31 00 00 00 00   '.."1....'
  can0  TX - -  18DA28F1   [8]  03 22 08 33 00 00 00 00   '.".3....'
  can0  TX - -  18DA28F1   [8]  03 22 08 33 00 00 00 00   '.".3....'
  can0  TX - -  18DA28F1   [8]  03 22 08 33 00 00 00 00   '.".3....'
  can0  TX - -  18DA28F1   [8]  03 22 08 33 00 00 00 00   '.".3....'
  can0  TX - -  18DA28F1   [8]  03 22 08 33 00 00 00 00   '.".3....'
  can0  TX - -  18DA28F1   [8]  03 22 08 33 00 00 00 00   '.".3....'
  can0  TX - -  18DA28F1   [8]  03 22 08 33 00 00 00 00   '.".3....'
  can0  TX - -  18DA28F1   [8]  03 22 08 33 00 00 00 00   '.".3....'
  can0  TX - -  18DA28F1   [8]  03 22 08 33 00 00 00 00   '.".3....'
  can0  TX - -  18DA28F1   [8]  03 22 08 33 00 00 00 00   '.".3....'
  can0  TX - -  18DA28F1   [8]  03 22 08 33 00 00 00 00   '.".3....'
  can0  TX - -  18DA28F1   [8]  03 22 08 33 00 00 00 00   '.".3....'
  can0  TX - -  18DA28F1   [8]  03 22 08 33 00 00 00 00   '.".3....'
  can0  TX - -  18DA28F1   [8]  03 22 08 33 00 00 00 00   '.".3....'
  can0  TX - -  18DA28F1   [8]  03 22 08 33 00 00 00 00   '.".3....'
  can0  TX - -  18DA28F1   [8]  03 22 08 33 00 00 00 00   '.".3....'
  can0  TX - -  18DA28F1   [8]  03 22 08 33 00 00 00 00   '.".3....'
  can0  RX - -  18DAF128   [8]  03 7F 22 31 00 00 00 00   '.."1....'
  can0  TX - -  18DA28F1   [8]  03 22 08 33 00 00 00 00   '.".3....'
  can0  TX - -  18DA28F1   [8]  03 22 08 33 00 00 00 00   '.".3....'
  can0  TX - -  18DA28F1   [8]  03 22 08 33 00 00 00 00   '.".3....'
  can0  TX - -  18DA28F1   [8]  03 22 08 33 00 00 00 00   '.".3....'
  can0  TX - -  18DA28F1   [8]  03 22 08 33 00 00 00 00   '.".3....'
  can0  TX - -  18DA28F1   [8]  03 22 08 33 00 00 00 00   '.".3....'
  can0  TX - -  18DA28F1   [8]  03 22 08 33 00 00 00 00   '.".3....'
  can0  TX - -  18DA28F1   [8]  03 22 08 33 00 00 00 00   '.".3....'
  can0  TX - -  18DA28F1   [8]  03 22 08 33 00 00 00 00   '.".3....'
  can0  TX - -  18DA28F1   [8]  03 22 08 33 00 00 00 00   '.".3....'
  can0  TX - -  18DA28F1   [8]  03 22 08 33 00 00 00 00   '.".3....'
  can0  TX - -  18DA28F1   [8]  03 22 08 33 00 00 00 00   '.".3....'
  can0  TX - -  18DA28F1   [8]  03 22 08 33 00 00 00 00   '.".3....'
  can0  TX - -  18DA28F1   [8]  03 22 08 33 00 00 00 00   '.".3....'
  can0  TX - -  18DA28F1   [8]  03 22 08 33 00 00 00 00   '.".3....'
  can0  TX - -  18DA28F1   [8]  03 22 08 33 00 00 00 00   '.".3....'
  can0  TX - -  18DA28F1   [8]  30 00 00 00 00 00 00 00   '0.......'
  can0  RX - -  18DAF128   [8]  03 7F 22 31 00 00 00 00   '.."1....'
  can0  TX - -  18DA28F1   [8]  03 22 08 34 00 00 00 00   '.".4....'
  can0  TX - -  18DA28F1   [8]  03 22 08 34 00 00 00 00   '.".4....'
  can0  TX - -  18DA28F1   [8]  03 22 08 34 00 00 00 00   '.".4....'
  can0  TX - -  18DA28F1   [8]  03 22 08 34 00 00 00 00   '.".4....'
  can0  TX - -  18DA28F1   [8]  03 22 08 34 00 00 00 00   '.".4....'
  can0  TX - -  18DA28F1   [8]  03 22 08 34 00 00 00 00   '.".4....'
  can0  TX - -  18DA28F1   [8]  03 22 08 34 00 00 00 00   '.".4....'
  can0  TX - -  18DA28F1   [8]  03 22 08 34 00 00 00 00   '.".4....'
  can0  TX - -  18DA28F1   [8]  03 22 08 34 00 00 00 00   '.".4....'
  can0  TX - -  18DA28F1   [8]  30 00 00 00 00 00 00 00   '0.......'
  can0  RX - -  18DAF128   [8]  03 7F 22 31 00 00 00 00   '.."1....'
  can0  TX - -  18DA28F1   [8]  03 22 08 35 00 00 00 00   '.".5....'
  can0  TX - -  18DA28F1   [8]  03 22 08 35 00 00 00 00   '.".5....'
  can0  TX - -  18DA28F1   [8]  03 22 08 35 00 00 00 00   '.".5....'
  can0  TX - -  18DA28F1   [8]  03 22 08 35 00 00 00 00   '.".5....'
  can0  TX - -  18DA28F1   [8]  03 22 08 35 00 00 00 00   '.".5....'
  can0  TX - -  18DA28F1   [8]  03 22 08 35 00 00 00 00   '.".5....'
  can0  TX - -  18DA28F1   [8]  03 22 08 35 00 00 00 00   '.".5....'
  can0  TX - -  18DA28F1   [8]  03 22 08 35 00 00 00 00   '.".5....'
  can0  TX - -  18DA28F1   [8]  03 22 08 35 00 00 00 00   '.".5....'
  can0  TX - -  18DA28F1   [8]  03 22 08 35 00 00 00 00   '.".5....'
  can0  TX - -  18DA28F1   [8]  03 22 08 35 00 00 00 00   '.".5....'
  can0  TX - -  18DA28F1   [8]  03 22 08 35 00 00 00 00   '.".5....'
  can0  TX - -  18DA28F1   [8]  30 00 00 00 00 00 00 00   '0.......'
  can0  RX - -  18DAF128   [8]  03 7F 22 31 00 00 00 00   '.."1....'
  can0  TX - -  18DA28F1   [8]  03 22 08 36 00 00 00 00   '.".6....'
  can0  TX - -  18DA28F1   [8]  03 22 08 36 00 00 00 00   '.".6....'
  can0  TX - -  18DA28F1   [8]  03 22 08 36 00 00 00 00   '.".6....'
  can0  TX - -  18DA28F1   [8]  03 22 08 36 00 00 00 00   '.".6....'
  can0  TX - -  18DA28F1   [8]  03 22 08 36 00 00 00 00   '.".6....'
  can0  TX - -  18DA28F1   [8]  03 22 08 36 00 00 00 00   '.".6....'
  can0  TX - -  18DA28F1   [8]  03 22 08 36 00 00 00 00   '.".6....'
  can0  TX - -  18DA28F1   [8]  03 22 08 36 00 00 00 00   '.".6....'
  can0  TX - -  18DA28F1   [8]  30 00 00 00 00 00 00 00   '0.......'
  can0  RX - -  18DAF128   [8]  03 7F 22 31 00 00 00 00   '.."1....'
  can0  TX - -  18DA28F1   [8]  03 22 08 37 00 00 00 00   '.".7....'
  can0  TX - -  18DA28F1   [8]  03 22 08 37 00 00 00 00   '.".7....'
  can0  TX - -  18DA28F1   [8]  03 22 08 37 00 00 00 00   '.".7....'
  can0  TX - -  18DA28F1   [8]  03 22 08 37 00 00 00 00   '.".7....'
  can0  TX - -  18DA28F1   [8]  03 22 08 37 00 00 00 00   '.".7....'
  can0  TX - -  18DA28F1   [8]  03 22 08 37 00 00 00 00   '.".7....'
  can0  TX - -  18DA28F1   [8]  03 22 08 37 00 00 00 00   '.".7....'
  can0  TX - -  18DA28F1   [8]  03 22 08 37 00 00 00 00   '.".7....'
  can0  TX - -  18DA28F1   [8]  03 22 08 37 00 00 00 00   '.".7....'
  can0  TX - -  18DA28F1   [8]  03 22 08 37 00 00 00 00   '.".7....'
  can0  TX - -  18DA28F1   [8]  03 22 08 37 00 00 00 00   '.".7....'
  can0  TX - -  18DA28F1   [8]  03 22 08 37 00 00 00 00   '.".7....'
  can0  TX - -  18DA28F1   [8]  03 22 08 37 00 00 00 00   '.".7....'
  can0  TX - -  18DA28F1   [8]  03 22 08 37 00 00 00 00   '.".7....'
  can0  TX - -  18DA28F1   [8]  03 22 08 37 00 00 00 00   '.".7....'
  can0  TX - -  18DA28F1   [8]  03 22 08 37 00 00 00 00   '.".7....'
  can0  TX - -  18DA28F1   [8]  03 22 08 37 00 00 00 00   '.".7....'
  can0  TX - -  18DA28F1   [8]  03 22 08 37 00 00 00 00   '.".7....'
  can0  TX - -  18DA28F1   [8]  03 22 08 37 00 00 00 00   '.".7....'
  can0  TX - -  18DA28F1   [8]  03 22 08 37 00 00 00 00   '.".7....'
  can0  TX - -  18DA28F1   [8]  03 22 08 37 00 00 00 00   '.".7....'
  can0  RX - -  18DAF128   [8]  03 7F 22 31 00 00 00 00   '.."1....'
  can0  TX - -  18DA28F1   [8]  03 22 08 37 00 00 00 00   '.".7....'
  can0  TX - -  18DA28F1   [8]  03 22 08 37 00 00 00 00   '.".7....'
  can0  TX - -  18DA28F1   [8]  03 22 08 37 00 00 00 00   '.".7....'
  can0  TX - -  18DA28F1   [8]  03 22 08 37 00 00 00 00   '.".7....'
  can0  TX - -  18DA28F1   [8]  03 22 08 37 00 00 00 00   '.".7....'
  can0  TX - -  18DA28F1   [8]  30 00 00 00 00 00 00 00   '0.......'
  can0  RX - -  18DAF128   [8]  03 7F 22 31 00 00 00 00   '.."1....'
  can0  TX - -  18DA28F1   [8]  03 22 08 38 00 00 00 00   '.".8....'
  can0  TX - -  18DA28F1   [8]  03 22 08 38 00 00 00 00   '.".8....'
  can0  TX - -  18DA28F1   [8]  03 22 08 38 00 00 00 00   '.".8....'
  can0  TX - -  18DA28F1   [8]  03 22 08 38 00 00 00 00   '.".8....'
  can0  TX - -  18DA28F1   [8]  03 22 08 38 00 00 00 00   '.".8....'
  can0  TX - -  18DA28F1   [8]  03 22 08 38 00 00 00 00   '.".8....'
  can0  TX - -  18DA28F1   [8]  03 22 08 38 00 00 00 00   '.".8....'
  can0  TX - -  18DA28F1   [8]  03 22 08 38 00 00 00 00   '.".8....'
  can0  TX - -  18DA28F1   [8]  03 22 08 38 00 00 00 00   '.".8....'
  can0  TX - -  18DA28F1   [8]  03 22 08 38 00 00 00 00   '.".8....'
  can0  TX - -  18DA28F1   [8]  30 00 00 00 00 00 00 00   '0.......'
  can0  RX - -  18DAF128   [8]  03 7F 22 31 00 00 00 00   '.."1....'
  can0  TX - -  18DA28F1   [8]  03 22 08 39 00 00 00 00   '.".9....'
  can0  TX - -  18DA28F1   [8]  03 22 08 39 00 00 00 00   '.".9....'
  can0  TX - -  18DA28F1   [8]  03 22 08 39 00 00 00 00   '.".9....'
  can0  TX - -  18DA28F1   [8]  03 22 08 39 00 00 00 00   '.".9....'
  can0  TX - -  18DA28F1   [8]  03 22 08 39 00 00 00 00   '.".9....'
  can0  TX - -  18DA28F1   [8]  03 22 08 39 00 00 00 00   '.".9....'
  can0  TX - -  18DA28F1   [8]  03 22 08 39 00 00 00 00   '.".9....'
  can0  TX - -  18DA28F1   [8]  03 22 08 39 00 00 00 00   '.".9....'
  can0  TX - -  18DA28F1   [8]  30 00 00 00 00 00 00 00   '0.......'
  can0  RX - -  18DAF128   [8]  03 7F 22 31 00 00 00 00   '.."1....'
  can0  TX - -  18DA28F1   [8]  03 22 08 3A 00 00 00 00   '.".:....'
  can0  TX - -  18DA28F1   [8]  03 22 08 3A 00 00 00 00   '.".:....'
  can0  TX - -  18DA28F1   [8]  03 22 08 3A 00 00 00 00   '.".:....'
  can0  TX - -  18DA28F1   [8]  03 22 08 3A 00 00 00 00   '.".:....'
  can0  TX - -  18DA28F1   [8]  03 22 08 3A 00 00 00 00   '.".:....'
  can0  TX - -  18DA28F1   [8]  03 22 08 3A 00 00 00 00   '.".:....'
  can0  TX - -  18DA28F1   [8]  03 22 08 3A 00 00 00 00   '.".:....'
  can0  TX - -  18DA28F1   [8]  03 22 08 3A 00 00 00 00   '.".:....'
  can0  TX - -  18DA28F1   [8]  30 00 00 00 00 00 00 00   '0.......'
  can0  RX - -  18DAF128   [8]  03 7F 22 31 00 00 00 00   '.."1....'
  can0  TX - -  18DA28F1   [8]  03 22 08 3B 00 00 00 00   '.".;....'
  can0  TX - -  18DA28F1   [8]  03 22 08 3B 00 00 00 00   '.".;....'
  can0  TX - -  18DA28F1   [8]  03 22 08 3B 00 00 00 00   '.".;....'
  can0  TX - -  18DA28F1   [8]  03 22 08 3B 00 00 00 00   '.".;....'
  can0  TX - -  18DA28F1   [8]  03 22 08 3B 00 00 00 00   '.".;....'
  can0  TX - -  18DA28F1   [8]  03 22 08 3B 00 00 00 00   '.".;....'
  can0  TX - -  18DA28F1   [8]  03 22 08 3B 00 00 00 00   '.".;....'
  can0  TX - -  18DA28F1   [8]  03 22 08 3B 00 00 00 00   '.".;....'
  can0  TX - -  18DA28F1   [8]  03 22 08 3B 00 00 00 00   '.".;....'
  can0  TX - -  18DA28F1   [8]  03 22 08 3B 00 00 00 00   '.".;....'
  can0  TX - -  18DA28F1   [8]  30 00 00 00 00 00 00 00   '0.......'
  can0  RX - -  18DAF128   [8]  03 7F 22 31 00 00 00 00   '.."1....'
  can0  TX - -  18DA28F1   [8]  03 22 08 3C 00 00 00 00   '.".<....'
  can0  TX - -  18DA28F1   [8]  03 22 08 3C 00 00 00 00   '.".<....'
