  can0  TX - -  713   [8]  02 10 03 00 00 00 00 00   '........'
  can0  RX - -  77D   [8]  06 50 03 00 32 01 F4 AA   '.P..2...'
  can0  TX - -  713   [8]  02 27 03 00 00 00 00 00   '.'......'
  can0  RX - -  77D   [8]  06 67 03 A0 8C 5F 76 AA   '.g..._v.'
  can0  TX - -  713   [8]  02 10 03 00 00 00 00 00   '........'
  can0  RX - -  77D   [8]  06 50 03 00 32 01 F4 AA   '.P..2...'
  can0  TX - -  713   [8]  02 27 03 00 00 00 00 00   '.'......'
  can0  RX - -  77D   [8]  06 67 03 A0 19 5F E9 AA   '.g..._..'
  can0  TX - -  713   [8]  02 10 03 00 00 00 00 00   '........'
  can0  RX - -  77D   [8]  06 50 03 00 32 01 F4 AA   '.P..2...'
  can0  TX - -  713   [8]  02 27 03 00 00 00 00 00   '.'......'
  can0  RX - -  77D   [8]  06 67 03 9F A1 60 61 AA   '.g...`a.'
  can0  TX - -  713   [8]  02 10 03 00 00 00 00 00   '........'
  can0  RX - -  77D   [8]  06 50 03 00 32 01 F4 AA   '.P..2...'
  can0  TX - -  713   [8]  02 27 03 00 00 00 00 00   '.'......'
  can0  RX - -  77D   [8]  06 67 03 9F 29 60 D9 AA   '.g..)`..'
  can0  TX - -  713   [8]  02 10 03 00 00 00 00 00   '........'
  can0  RX - -  77D   [8]  06 50 03 00 32 01 F4 AA   '.P..2...'
  can0  TX - -  713   [8]  02 27 03 00 00 00 00 00   '.'......'
  can0  RX - -  77D   [8]  06 67 03 9E B1 61 51 AA   '.g...aQ.'
  can0  TX - -  713   [8]  02 10 03 00 00 00 00 00   '........'
  can0  RX - -  77D   [8]  06 50 03 00 32 01 F4 AA   '.P..2...'
  can0  TX - -  713   [8]  02 27 03 00 00 00 00 00   '.'......'
  can0  RX - -  77D   [8]  06 67 03 9E 39 61 C9 AA   '.g..9a..'
  can0  TX - -  713   [8]  02 10 03 00 00 00 00 00   '........'
  can0  RX - -  77D   [8]  06 50 03 00 32 01 F4 AA   '.P..2...'
  can0  TX - -  713   [8]  02 27 03 00 00 00 00 00   '.'......'
  can0  RX - -  77D   [8]  06 67 03 9D C1 62 41 AA   '.g...bA.'
  can0  TX - -  713   [8]  02 10 03 00 00 00 00 00   '........'
  can0  RX - -  77D   [8]  06 50 03 00 32 01 F4 AA   '.P..2...'
  can0  TX - -  713   [8]  02 27 03 00 00 00 00 00   '.'......'
  can0  RX - -  77D   [8]  06 67 03 9D 49 62 B9 AA   '.g..Ib..'
  can0  TX - -  713   [8]  02 10 03 00 00 00 00 00   '........'
  can0  RX - -  77D   [8]  06 50 03 00 32 01 F4 AA   '.P..2...'
  can0  TX - -  713   [8]  02 27 03 00 00 00 00 00   '.'......'
  can0  RX - -  77D   [8]  06 67 03 9C D1 63 31 AA   '.g...c1.'
  can0  TX - -  713   [8]  02 10 03 00 00 00 00 00   '........'
  can0  RX - -  77D   [8]  06 50 03 00 32 01 F4 AA   '.P..2...'
  can0  TX - -  713   [8]  02 27 03 00 00 00 00 00   '.'......'
  can0  RX - -  77D   [8]  06 67 03 9C 59 63 A9 AA   '.g..Yc..'
  can0  TX - -  713   [8]  02 10 03 00 00 00 00 00   '........'
  can0  RX - -  77D   [8]  06 50 03 00 32 01 F4 AA   '.P..2...'
  can0  TX - -  713   [8]  02 27 03 00 00 00 00 00   '.'......'
  can0  RX - -  77D   [8]  06 67 03 9B E1 64 21 AA   '.g...d!.'
  can0  TX - -  713   [8]  02 10 03 00 00 00 00 00   '........'
  can0  RX - -  77D   [8]  06 50 03 00 32 01 F4 AA   '.P..2...'
  can0  TX - -  713   [8]  02 27 03 00 00 00 00 00   '.'......'
  can0  RX - -  77D   [8]  06 67 03 9B 69 64 99 AA   '.g..id..'
  can0  TX - -  713   [8]  02 10 03 00 00 00 00 00   '........'
  can0  RX - -  77D   [8]  06 50 03 00 32 01 F4 AA   '.P..2...'
  can0  TX - -  713   [8]  02 27 03 00 00 00 00 00   '.'......'
  can0  RX - -  77D   [8]  06 67 03 9A F1 65 11 AA   '.g...e..'
  can0  TX - -  713   [8]  02 10 03 00 00 00 00 00   '........'
  can0  RX - -  77D   [8]  06 50 03 00 32 01 F4 AA   '.P..2...'
  can0  TX - -  713   [8]  02 27 03 00 00 00 00 00   '.'......'
  can0  RX - -  77D   [8]  06 67 03 9A 79 65 89 AA   '.g..ye..'
  can0  TX - -  713   [8]  02 10 03 00 00 00 00 00   '........'
  can0  RX - -  77D   [8]  06 50 03 00 32 01 F4 AA   '.P..2...'
  can0  TX - -  713   [8]  02 27 03 00 00 00 00 00   '.'......'
  can0  RX - -  77D   [8]  06 67 03 9A 01 66 01 AA   '.g...f..'
  can0  TX - -  713   [8]  02 10 03 00 00 00 00 00   '........'
  can0  RX - -  77D   [8]  06 50 03 00 32 01 F4 AA   '.P..2...'
  can0  TX - -  713   [8]  02 27 03 00 00 00 00 00   '.'......'
  can0  RX - -  77D   [8]  06 67 03 99 89 66 79 AA   '.g...fy.'
  can0  TX - -  713   [8]  02 10 03 00 00 00 00 00   '........'
  can0  RX - -  77D   [8]  06 50 03 00 32 01 F4 AA   '.P..2...'
  can0  TX - -  713   [8]  02 27 03 00 00 00 00 00   '.'......'
  can0  RX - -  77D   [8]  06 67 03 99 11 66 F1 AA   '.g...f..'
  can0  TX - -  713   [8]  02 10 03 00 00 00 00 00   '........'
  can0  RX - -  77D   [8]  06 50 03 00 32 01 F4 AA   '.P..2...'
  can0  TX - -  713   [8]  02 27 03 00 00 00 00 00   '.'......'
  can0  RX - -  77D   [8]  06 67 03 98 99 67 69 AA   '.g...gi.'
  can0  TX - -  713   [8]  02 10 03 00 00 00 00 00   '........'
  can0  RX - -  77D   [8]  06 50 03 00 32 01 F4 AA   '.P..2...'
  can0  TX - -  713   [8]  02 27 03 00 00 00 00 00   '.'......'
  can0  RX - -  77D   [8]  06 67 03 98 21 67 E1 AA   '.g..!g..'
  can0  TX - -  713   [8]  02 10 03 00 00 00 00 00   '........'
  can0  RX - -  77D   [8]  06 50 03 00 32 01 F4 AA   '.P..2...'
  can0  TX - -  713   [8]  02 27 03 00 00 00 00 00   '.'......'
  can0  RX - -  77D   [8]  06 67 03 97 A9 68 59 AA   '.g...hY.'
  can0  TX - -  713   [8]  02 10 03 00 00 00 00 00   '........'
  can0  RX - -  77D   [8]  06 50 03 00 32 01 F4 AA   '.P..2...'
  can0  TX - -  713   [8]  02 27 03 00 00 00 00 00   '.'......'
  can0  RX - -  77D   [8]  06 67 03 97 31 68 D1 AA   '.g..1h..'
  can0  TX - -  713   [8]  02 10 03 00 00 00 00 00   '........'
  can0  RX - -  77D   [8]  06 50 03 00 32 01 F4 AA   '.P..2...'
  can0  TX - -  713   [8]  02 27 03 00 00 00 00 00   '.'......'
  can0  RX - -  77D   [8]  06 67 03 96 B9 69 49 AA   '.g...iI.'
  can0  TX - -  713   [8]  02 10 03 00 00 00 00 00   '........'
  can0  RX - -  77D   [8]  06 50 03 00 32 01 F4 AA   '.P..2...'
  can0  TX - -  713   [8]  02 27 03 00 00 00 00 00   '.'......'
  can0  RX - -  77D   [8]  06 67 03 96 41 69 C1 AA   '.g..Ai..'
  can0  TX - -  713   [8]  02 10 03 00 00 00 00 00   '........'
  can0  RX - -  77D   [8]  06 50 03 00 32 01 F4 AA   '.P..2...'
  can0  TX - -  713   [8]  02 27 03 00 00 00 00 00   '.'......'
  can0  RX - -  77D   [8]  06 67 03 95 C9 6A 39 AA   '.g...j9.'
  can0  TX - -  713   [8]  02 10 03 00 00 00 00 00   '........'
  can0  RX - -  77D   [8]  06 50 03 00 32 01 F4 AA   '.P..2...'
  can0  TX - -  713   [8]  02 27 03 00 00 00 00 00   '.'......'
  can0  RX - -  77D   [8]  06 67 03 95 51 6A B1 AA   '.g..Qj..'
  can0  TX - -  713   [8]  02 10 03 00 00 00 00 00   '........'
  can0  RX - -  77D   [8]  06 50 03 00 32 01 F4 AA   '.P..2...'
  can0  TX - -  713   [8]  02 27 03 00 00 00 00 00   '.'......'
  can0  RX - -  77D   [8]  06 67 03 94 D9 6B 29 AA   '.g...k).'
  can0  TX - -  713   [8]  02 10 03 00 00 00 00 00   '........'
  can0  RX - -  77D   [8]  06 50 03 00 32 01 F4 AA   '.P..2...'
  can0  TX - -  713   [8]  02 27 03 00 00 00 00 00   '.'......'
  can0  RX - -  77D   [8]  06 67 03 94 61 6B A1 AA   '.g..ak..'
  can0  TX - -  713   [8]  02 10 03 00 00 00 00 00   '........'
  can0  RX - -  77D   [8]  06 50 03 00 32 01 F4 AA   '.P..2...'
  can0  TX - -  713   [8]  02 27 03 00 00 00 00 00   '.'......'
  can0  RX - -  77D   [8]  06 67 03 93 E9 6C 19 AA   '.g...l..'
  can0  TX - -  713   [8]  02 10 03 00 00 00 00 00   '........'
  can0  RX - -  77D   [8]  06 50 03 00 32 01 F4 AA   '.P..2...'
  can0  TX - -  713   [8]  02 27 03 00 00 00 00 00   '.'......'
  can0  RX - -  77D   [8]  06 67 03 93 71 6C 91 AA   '.g..ql..'
  can0  TX - -  713   [8]  02 10 03 00 00 00 00 00   '........'
  can0  RX - -  77D   [8]  06 50 03 00 32 01 F4 AA   '.P..2...'
  can0  TX - -  713   [8]  02 27 03 00 00 00 00 00   '.'......'
  can0  RX - -  77D   [8]  06 67 03 92 F9 6D 09 AA   '.g...m..'
  can0  TX - -  713   [8]  02 10 03 00 00 00 00 00   '........'
  can0  RX - -  77D   [8]  06 50 03 00 32 01 F4 AA   '.P..2...'
  can0  TX - -  713   [8]  02 27 03 00 00 00 00 00   '.'......'
  can0  RX - -  77D   [8]  06 67 03 92 81 6D 81 AA   '.g...m..'
  can0  TX - -  713   [8]  02 10 03 00 00 00 00 00   '........'
  can0  RX - -  77D   [8]  06 50 03 00 32 01 F4 AA   '.P..2...'
  can0  TX - -  713   [8]  02 27 03 00 00 00 00 00   '.'......'
  can0  RX - -  77D   [8]  06 67 03 92 09 6D F9 AA   '.g...m..'
  can0  TX - -  713   [8]  02 10 03 00 00 00 00 00   '........'
  can0  RX - -  77D   [8]  06 50 03 00 32 01 F4 AA   '.P..2...'
  can0  TX - -  713   [8]  02 27 03 00 00 00 00 00   '.'......'
  can0  RX - -  77D   [8]  06 67 03 91 91 6E 71 AA   '.g...nq.'
  can0  TX - -  713   [8]  02 10 03 00 00 00 00 00   '........'
  can0  RX - -  77D   [8]  06 50 03 00 32 01 F4 AA   '.P..2...'
  can0  TX - -  713   [8]  02 27 03 00 00 00 00 00   '.'......'
  can0  RX - -  77D   [8]  06 67 03 91 19 6E E9 AA   '.g...n..'
  can0  TX - -  713   [8]  02 10 03 00 00 00 00 00   '........'
  can0  RX - -  77D   [8]  06 50 03 00 32 01 F4 AA   '.P..2...'
  can0  TX - -  713   [8]  02 27 03 00 00 00 00 00   '.'......'
  can0  RX - -  77D   [8]  06 67 03 90 A1 6F 61 AA   '.g...oa.'
  can0  TX - -  713   [8]  02 10 03 00 00 00 00 00   '........'
  can0  RX - -  77D   [8]  06 50 03 00 32 01 F4 AA   '.P..2...'
  can0  TX - -  713   [8]  02 27 03 00 00 00 00 00   '.'......'
  can0  RX - -  77D   [8]  06 67 03 90 29 6F D9 AA   '.g..)o..'
  can0  TX - -  713   [8]  02 10 03 00 00 00 00 00   '........'
  can0  RX - -  77D   [8]  06 50 03 00 32 01 F4 AA   '.P..2...'
  can0  TX - -  713   [8]  02 27 03 00 00 00 00 00   '.'......'
  can0  RX - -  77D   [8]  06 67 03 8F B1 70 51 AA   '.g...pQ.'
  can0  TX - -  713   [8]  02 10 03 00 00 00 00 00   '........'
  can0  RX - -  77D   [8]  06 50 03 00 32 01 F4 AA   '.P..2...'
  can0  TX - -  713   [8]  02 27 03 00 00 00 00 00   '.'......'
  can0  RX - -  77D   [8]  06 67 03 8F 39 70 C9 AA   '.g..9p..'
  can0  TX - -  713   [8]  02 10 03 00 00 00 00 00   '........'
  can0  RX - -  77D   [8]  06 50 03 00 32 01 F4 AA   '.P..2...'
