--
  candump  -a -d -e -x can0  | grep -B1 RX >> can_logs/__THIS__.log

   def bruteforce_byte_1(bus, arb_id):
      for i in range(0x20):
          can_xchg(bus, arb_id, [1, i, 0, 0, 0, 0, 0, 0])
      for i in range(0x20):
          can_xchg(bus, arb_id, [1, i, 64, 64, 64, 64, 64, 64]) 
      for i in range(0x20):
          can_xchg(bus, arb_id, [1, i, 128, 128, 128, 128, 128, 128])
      for i in range(0x20):
          can_xchg(bus, arb_id, [1, i, 255, 255, 255, 255, 255, 255])

   bruteforce_byte_1(bus, 0x7f1)

-- 

  can0  TX - -  7F1   [8]  01 00 00 00 00 00 00 00   '........'
  can0  RX - -  7F9   [8]  03 7F 00 11 AA AA AA AA   '........'
  can0  TX - -  7F1   [8]  01 01 00 00 00 00 00 00   '........'
  can0  RX - -  7F9   [8]  03 7F 01 11 AA AA AA AA   '........'
  can0  TX - -  7F1   [8]  01 02 00 00 00 00 00 00   '........'
  can0  RX - -  7F9   [8]  03 7F 02 11 AA AA AA AA   '........'
  can0  TX - -  7F1   [8]  01 03 00 00 00 00 00 00   '........'
  can0  RX - -  7F9   [8]  03 7F 03 11 AA AA AA AA   '........'
  can0  TX - -  7F1   [8]  01 04 00 00 00 00 00 00   '........'
  can0  RX - -  7F9   [8]  03 7F 04 11 AA AA AA AA   '........'
  can0  TX - -  7F1   [8]  01 05 00 00 00 00 00 00   '........'
  can0  RX - -  7F9   [8]  03 7F 05 11 AA AA AA AA   '........'
  can0  TX - -  7F1   [8]  01 06 00 00 00 00 00 00   '........'
  can0  RX - -  7F9   [8]  03 7F 06 11 AA AA AA AA   '........'
  can0  TX - -  7F1   [8]  01 07 00 00 00 00 00 00   '........'
  can0  RX - -  7F9   [8]  03 7F 07 11 AA AA AA AA   '........'
  can0  TX - -  7F1   [8]  01 08 00 00 00 00 00 00   '........'
  can0  RX - -  7F9   [8]  03 7F 08 11 AA AA AA AA   '........'
  can0  TX - -  7F1   [8]  01 09 00 00 00 00 00 00   '........'
  can0  RX - -  7F9   [8]  03 7F 09 11 AA AA AA AA   '........'
  can0  TX - -  7F1   [8]  01 0A 00 00 00 00 00 00   '........'
  can0  RX - -  7F9   [8]  03 7F 0A 11 AA AA AA AA   '........'
  can0  TX - -  7F1   [8]  01 0B 00 00 00 00 00 00   '........'
  can0  RX - -  7F9   [8]  03 7F 0B 11 AA AA AA AA   '........'
  can0  TX - -  7F1   [8]  01 0C 00 00 00 00 00 00   '........'
  can0  RX - -  7F9   [8]  03 7F 0C 11 AA AA AA AA   '........'
  can0  TX - -  7F1   [8]  01 0D 00 00 00 00 00 00   '........'
  can0  RX - -  7F9   [8]  03 7F 0D 11 AA AA AA AA   '........'
  can0  TX - -  7F1   [8]  01 0E 00 00 00 00 00 00   '........'
  can0  RX - -  7F9   [8]  03 7F 0E 11 AA AA AA AA   '........'
  can0  TX - -  7F1   [8]  01 0F 00 00 00 00 00 00   '........'
  can0  RX - -  7F9   [8]  03 7F 0F 11 AA AA AA AA   '........'
  can0  TX - -  7F1   [8]  01 10 00 00 00 00 00 00   '........'
  can0  RX - -  7F9   [8]  03 7F 10 13 AA AA AA AA   '........'
  can0  TX - -  7F1   [8]  01 11 00 00 00 00 00 00   '........'
  can0  RX - -  7F9   [8]  03 7F 11 12 AA AA AA AA   '........'
  can0  TX - -  7F1   [8]  01 12 00 00 00 00 00 00   '........'
  can0  RX - -  7F9   [8]  03 7F 12 11 AA AA AA AA   '........'
  can0  TX - -  7F1   [8]  01 13 00 00 00 00 00 00   '........'
  can0  RX - -  7F9   [8]  03 7F 13 11 AA AA AA AA   '........'
  can0  TX - -  7F1   [8]  01 14 00 00 00 00 00 00   '........'
  can0  RX - -  7F9   [8]  03 7F 14 13 AA AA AA AA   '........'
  can0  TX - -  7F1   [8]  01 15 00 00 00 00 00 00   '........'
  can0  RX - -  7F9   [8]  03 7F 15 11 AA AA AA AA   '........'
  can0  TX - -  7F1   [8]  01 16 00 00 00 00 00 00   '........'
  can0  RX - -  7F9   [8]  03 7F 16 11 AA AA AA AA   '........'
  can0  TX - -  7F1   [8]  01 17 00 00 00 00 00 00   '........'
  can0  RX - -  7F9   [8]  03 7F 17 11 AA AA AA AA   '........'
  can0  TX - -  7F1   [8]  01 18 00 00 00 00 00 00   '........'
  can0  RX - -  7F9   [8]  03 7F 18 11 AA AA AA AA   '........'
  can0  TX - -  7F1   [8]  01 19 00 00 00 00 00 00   '........'
  can0  RX - -  7F9   [8]  03 7F 19 12 AA AA AA AA   '........'
  can0  TX - -  7F1   [8]  01 1A 00 00 00 00 00 00   '........'
  can0  RX - -  7F9   [8]  03 7F 1A 11 AA AA AA AA   '........'
  can0  TX - -  7F1   [8]  01 1B 00 00 00 00 00 00   '........'
  can0  RX - -  7F9   [8]  03 7F 1B 11 AA AA AA AA   '........'
  can0  TX - -  7F1   [8]  01 1C 00 00 00 00 00 00   '........'
  can0  RX - -  7F9   [8]  03 7F 1C 11 AA AA AA AA   '........'
  can0  TX - -  7F1   [8]  01 1D 00 00 00 00 00 00   '........'
  can0  RX - -  7F9   [8]  03 7F 1D 11 AA AA AA AA   '........'
  can0  TX - -  7F1   [8]  01 1E 00 00 00 00 00 00   '........'
  can0  RX - -  7F9   [8]  03 7F 1E 11 AA AA AA AA   '........'
  can0  TX - -  7F1   [8]  01 1F 00 00 00 00 00 00   '........'
  can0  RX - -  7F9   [8]  03 7F 1F 11 AA AA AA AA   '........'
  can0  TX - -  7F1   [8]  01 00 40 40 40 40 40 40   '..@@@@@@'
  can0  RX - -  7F9   [8]  03 7F 00 11 AA AA AA AA   '........'
  can0  TX - -  7F1   [8]  01 01 40 40 40 40 40 40   '..@@@@@@'
  can0  RX - -  7F9   [8]  03 7F 01 11 AA AA AA AA   '........'
  can0  TX - -  7F1   [8]  01 02 40 40 40 40 40 40   '..@@@@@@'
  can0  RX - -  7F9   [8]  03 7F 02 11 AA AA AA AA   '........'
  can0  TX - -  7F1   [8]  01 03 40 40 40 40 40 40   '..@@@@@@'
  can0  RX - -  7F9   [8]  03 7F 03 11 AA AA AA AA   '........'
  can0  TX - -  7F1   [8]  01 04 40 40 40 40 40 40   '..@@@@@@'
  can0  RX - -  7F9   [8]  03 7F 04 11 AA AA AA AA   '........'
  can0  TX - -  7F1   [8]  01 05 40 40 40 40 40 40   '..@@@@@@'
  can0  RX - -  7F9   [8]  03 7F 05 11 AA AA AA AA   '........'
  can0  TX - -  7F1   [8]  01 06 40 40 40 40 40 40   '..@@@@@@'
  can0  RX - -  7F9   [8]  03 7F 06 11 AA AA AA AA   '........'
  can0  TX - -  7F1   [8]  01 07 40 40 40 40 40 40   '..@@@@@@'
  can0  RX - -  7F9   [8]  03 7F 07 11 AA AA AA AA   '........'
  can0  TX - -  7F1   [8]  01 08 40 40 40 40 40 40   '..@@@@@@'
  can0  RX - -  7F9   [8]  03 7F 08 11 AA AA AA AA   '........'
  can0  TX - -  7F1   [8]  01 09 40 40 40 40 40 40   '..@@@@@@'
  can0  RX - -  7F9   [8]  03 7F 09 11 AA AA AA AA   '........'
  can0  TX - -  7F1   [8]  01 0A 40 40 40 40 40 40   '..@@@@@@'
  can0  RX - -  7F9   [8]  03 7F 0A 11 AA AA AA AA   '........'
  can0  TX - -  7F1   [8]  01 0B 40 40 40 40 40 40   '..@@@@@@'
  can0  RX - -  7F9   [8]  03 7F 0B 11 AA AA AA AA   '........'
  can0  TX - -  7F1   [8]  01 0C 40 40 40 40 40 40   '..@@@@@@'
  can0  RX - -  7F9   [8]  03 7F 0C 11 AA AA AA AA   '........'
  can0  TX - -  7F1   [8]  01 0D 40 40 40 40 40 40   '..@@@@@@'
  can0  RX - -  7F9   [8]  03 7F 0D 11 AA AA AA AA   '........'
  can0  TX - -  7F1   [8]  01 0E 40 40 40 40 40 40   '..@@@@@@'
  can0  RX - -  7F9   [8]  03 7F 0E 11 AA AA AA AA   '........'
  can0  TX - -  7F1   [8]  01 0F 40 40 40 40 40 40   '..@@@@@@'
  can0  RX - -  7F9   [8]  03 7F 0F 11 AA AA AA AA   '........'
  can0  TX - -  7F1   [8]  01 10 40 40 40 40 40 40   '..@@@@@@'
  can0  RX - -  7F9   [8]  03 7F 10 13 AA AA AA AA   '........'
  can0  TX - -  7F1   [8]  01 11 40 40 40 40 40 40   '..@@@@@@'
  can0  RX - -  7F9   [8]  03 7F 11 12 AA AA AA AA   '........'
  can0  TX - -  7F1   [8]  01 12 40 40 40 40 40 40   '..@@@@@@'
  can0  RX - -  7F9   [8]  03 7F 12 11 AA AA AA AA   '........'
  can0  TX - -  7F1   [8]  01 13 40 40 40 40 40 40   '..@@@@@@'
  can0  RX - -  7F9   [8]  03 7F 13 11 AA AA AA AA   '........'
  can0  TX - -  7F1   [8]  01 14 40 40 40 40 40 40   '..@@@@@@'
  can0  RX - -  7F9   [8]  03 7F 14 13 AA AA AA AA   '........'
  can0  TX - -  7F1   [8]  01 15 40 40 40 40 40 40   '..@@@@@@'
  can0  RX - -  7F9   [8]  03 7F 15 11 AA AA AA AA   '........'
  can0  TX - -  7F1   [8]  01 16 40 40 40 40 40 40   '..@@@@@@'
  can0  RX - -  7F9   [8]  03 7F 16 11 AA AA AA AA   '........'
  can0  TX - -  7F1   [8]  01 17 40 40 40 40 40 40   '..@@@@@@'
  can0  RX - -  7F9   [8]  03 7F 17 11 AA AA AA AA   '........'
  can0  TX - -  7F1   [8]  01 18 40 40 40 40 40 40   '..@@@@@@'
  can0  RX - -  7F9   [8]  03 7F 18 11 AA AA AA AA   '........'
  can0  TX - -  7F1   [8]  01 19 40 40 40 40 40 40   '..@@@@@@'
  can0  RX - -  7F9   [8]  03 7F 19 12 AA AA AA AA   '........'
  can0  TX - -  7F1   [8]  01 1A 40 40 40 40 40 40   '..@@@@@@'
  can0  RX - -  7F9   [8]  03 7F 1A 11 AA AA AA AA   '........'
  can0  TX - -  7F1   [8]  01 1B 40 40 40 40 40 40   '..@@@@@@'
  can0  RX - -  7F9   [8]  03 7F 1B 11 AA AA AA AA   '........'
  can0  TX - -  7F1   [8]  01 1C 40 40 40 40 40 40   '..@@@@@@'
  can0  RX - -  7F9   [8]  03 7F 1C 11 AA AA AA AA   '........'
  can0  TX - -  7F1   [8]  01 1D 40 40 40 40 40 40   '..@@@@@@'
  can0  RX - -  7F9   [8]  03 7F 1D 11 AA AA AA AA   '........'
  can0  TX - -  7F1   [8]  01 1E 40 40 40 40 40 40   '..@@@@@@'
  can0  RX - -  7F9   [8]  03 7F 1E 11 AA AA AA AA   '........'
  can0  TX - -  7F1   [8]  01 1F 40 40 40 40 40 40   '..@@@@@@'
  can0  RX - -  7F9   [8]  03 7F 1F 11 AA AA AA AA   '........'
  can0  TX - -  7F1   [8]  01 00 80 80 80 80 80 80   '........'
  can0  RX - -  7F9   [8]  03 7F 00 11 AA AA AA AA   '........'
  can0  TX - -  7F1   [8]  01 01 80 80 80 80 80 80   '........'
  can0  RX - -  7F9   [8]  03 7F 01 11 AA AA AA AA   '........'
  can0  TX - -  7F1   [8]  01 02 80 80 80 80 80 80   '........'
  can0  RX - -  7F9   [8]  03 7F 02 11 AA AA AA AA   '........'
  can0  TX - -  7F1   [8]  01 03 80 80 80 80 80 80   '........'
  can0  RX - -  7F9   [8]  03 7F 03 11 AA AA AA AA   '........'
  can0  TX - -  7F1   [8]  01 04 80 80 80 80 80 80   '........'
  can0  RX - -  7F9   [8]  03 7F 04 11 AA AA AA AA   '........'
  can0  TX - -  7F1   [8]  01 05 80 80 80 80 80 80   '........'
  can0  RX - -  7F9   [8]  03 7F 05 11 AA AA AA AA   '........'
  can0  TX - -  7F1   [8]  01 06 80 80 80 80 80 80   '........'
  can0  RX - -  7F9   [8]  03 7F 06 11 AA AA AA AA   '........'
  can0  TX - -  7F1   [8]  01 07 80 80 80 80 80 80   '........'
  can0  RX - -  7F9   [8]  03 7F 07 11 AA AA AA AA   '........'
  can0  TX - -  7F1   [8]  01 08 80 80 80 80 80 80   '........'
  can0  RX - -  7F9   [8]  03 7F 08 11 AA AA AA AA   '........'
  can0  TX - -  7F1   [8]  01 09 80 80 80 80 80 80   '........'
  can0  RX - -  7F9   [8]  03 7F 09 11 AA AA AA AA   '........'
  can0  TX - -  7F1   [8]  01 0A 80 80 80 80 80 80   '........'
  can0  RX - -  7F9   [8]  03 7F 0A 11 AA AA AA AA   '........'
  can0  TX - -  7F1   [8]  01 0B 80 80 80 80 80 80   '........'
  can0  RX - -  7F9   [8]  03 7F 0B 11 AA AA AA AA   '........'
  can0  TX - -  7F1   [8]  01 0C 80 80 80 80 80 80   '........'
  can0  RX - -  7F9   [8]  03 7F 0C 11 AA AA AA AA   '........'
  can0  TX - -  7F1   [8]  01 0D 80 80 80 80 80 80   '........'
  can0  RX - -  7F9   [8]  03 7F 0D 11 AA AA AA AA   '........'
  can0  TX - -  7F1   [8]  01 0E 80 80 80 80 80 80   '........'
  can0  RX - -  7F9   [8]  03 7F 0E 11 AA AA AA AA   '........'
  can0  TX - -  7F1   [8]  01 0F 80 80 80 80 80 80   '........'
  can0  RX - -  7F9   [8]  03 7F 0F 11 AA AA AA AA   '........'
  can0  TX - -  7F1   [8]  01 10 80 80 80 80 80 80   '........'
  can0  RX - -  7F9   [8]  03 7F 10 13 AA AA AA AA   '........'
  can0  TX - -  7F1   [8]  01 11 80 80 80 80 80 80   '........'
  can0  RX - -  7F9   [8]  03 7F 11 12 AA AA AA AA   '........'
  can0  TX - -  7F1   [8]  01 12 80 80 80 80 80 80   '........'
  can0  RX - -  7F9   [8]  03 7F 12 11 AA AA AA AA   '........'
  can0  TX - -  7F1   [8]  01 13 80 80 80 80 80 80   '........'
  can0  RX - -  7F9   [8]  03 7F 13 11 AA AA AA AA   '........'
  can0  TX - -  7F1   [8]  01 14 80 80 80 80 80 80   '........'
  can0  RX - -  7F9   [8]  03 7F 14 13 AA AA AA AA   '........'
  can0  TX - -  7F1   [8]  01 15 80 80 80 80 80 80   '........'
  can0  RX - -  7F9   [8]  03 7F 15 11 AA AA AA AA   '........'
  can0  TX - -  7F1   [8]  01 16 80 80 80 80 80 80   '........'
  can0  RX - -  7F9   [8]  03 7F 16 11 AA AA AA AA   '........'
  can0  TX - -  7F1   [8]  01 17 80 80 80 80 80 80   '........'
  can0  RX - -  7F9   [8]  03 7F 17 11 AA AA AA AA   '........'
  can0  TX - -  7F1   [8]  01 18 80 80 80 80 80 80   '........'
  can0  RX - -  7F9   [8]  03 7F 18 11 AA AA AA AA   '........'
  can0  TX - -  7F1   [8]  01 19 80 80 80 80 80 80   '........'
  can0  RX - -  7F9   [8]  03 7F 19 12 AA AA AA AA   '........'
  can0  TX - -  7F1   [8]  01 1A 80 80 80 80 80 80   '........'
  can0  RX - -  7F9   [8]  03 7F 1A 11 AA AA AA AA   '........'
  can0  TX - -  7F1   [8]  01 1B 80 80 80 80 80 80   '........'
  can0  RX - -  7F9   [8]  03 7F 1B 11 AA AA AA AA   '........'
  can0  TX - -  7F1   [8]  01 1C 80 80 80 80 80 80   '........'
  can0  RX - -  7F9   [8]  03 7F 1C 11 AA AA AA AA   '........'
  can0  TX - -  7F1   [8]  01 1D 80 80 80 80 80 80   '........'
  can0  RX - -  7F9   [8]  03 7F 1D 11 AA AA AA AA   '........'
  can0  TX - -  7F1   [8]  01 1E 80 80 80 80 80 80   '........'
  can0  RX - -  7F9   [8]  03 7F 1E 11 AA AA AA AA   '........'
  can0  TX - -  7F1   [8]  01 1F 80 80 80 80 80 80   '........'
  can0  RX - -  7F9   [8]  03 7F 1F 11 AA AA AA AA   '........'
