pi@canard:~/src 00:58:03 $ candump  -a -d -e -x can0 | grep 18D

can0  TX - -  18DA00F1   [8]  03 22 F1 A0 00 00 00 00   '."......'

can0  TX - -  18DA01F1   [8]  03 22 F1 A0 00 00 00 00   '."......'

can0  TX - -  18DA02F1   [8]  03 22 F1 A0 00 00 00 00   '."......'

can0  TX - -  18DA03F1   [8]  03 22 F1 A0 00 00 00 00   '."......'

can0  TX - -  18DA04F1   [8]  03 22 F1 A0 00 00 00 00   '."......'

can0  TX - -  18DA05F1   [8]  03 22 F1 A0 00 00 00 00   '."......'

can0  TX - -  18DA06F1   [8]  03 22 F1 A0 00 00 00 00   '."......'

can0  TX - -  18DA07F1   [8]  03 22 F1 A0 00 00 00 00   '."......'

can0  TX - -  18DA08F1   [8]  03 22 F1 A0 00 00 00 00   '."......'

can0  TX - -  18DA09F1   [8]  03 22 F1 A0 00 00 00 00   '."......'

can0  TX - -  18DA0AF1   [8]  03 22 F1 A0 00 00 00 00   '."......'

can0  TX - -  18DA0BF1   [8]  03 22 F1 A0 00 00 00 00   '."......'

can0  TX - -  18DA0CF1   [8]  03 22 F1 A0 00 00 00 00   '."......'

can0  TX - -  18DA0DF1   [8]  03 22 F1 A0 00 00 00 00   '."......'

can0  TX - -  18DA0EF1   [8]  03 22 F1 A0 00 00 00 00   '."......'

can0  TX - -  18DA0FF1   [8]  03 22 F1 A0 00 00 00 00   '."......'

can0  TX - -  18DA10F1   [8]  03 22 F1 A0 00 00 00 00   '."......'

can0  TX - -  18DA11F1   [8]  03 22 F1 A0 00 00 00 00   '."......'

can0  TX - -  18DA12F1   [8]  03 22 F1 A0 00 00 00 00   '."......'

can0  TX - -  18DA13F1   [8]  03 22 F1 A0 00 00 00 00   '."......'

can0  TX - -  18DA14F1   [8]  03 22 F1 A0 00 00 00 00   '."......'

can0  TX - -  18DA15F1   [8]  03 22 F1 A0 00 00 00 00   '."......'

can0  TX - -  18DA16F1   [8]  03 22 F1 A0 00 00 00 00   '."......'

can0  TX - -  18DA17F1   [8]  03 22 F1 A0 00 00 00 00   '."......'

can0  TX - -  18DA18F1   [8]  03 22 F1 A0 00 00 00 00   '."......'

can0  TX - -  18DA19F1   [8]  03 22 F1 A0 00 00 00 00   '."......'

can0  TX - -  18DA1AF1   [8]  03 22 F1 A0 00 00 00 00   '."......'

can0  TX - -  18DA1BF1   [8]  03 22 F1 A0 00 00 00 00   '."......'

can0  TX - -  18DA1CF1   [8]  03 22 F1 A0 00 00 00 00   '."......'

can0  TX - -  18DA1DF1   [8]  03 22 F1 A0 00 00 00 00   '."......'

can0  TX - -  18DA1EF1   [8]  03 22 F1 A0 00 00 00 00   '."......'

can0  TX - -  18DA1FF1   [8]  03 22 F1 A0 00 00 00 00   '."......'

can0  TX - -  18DA20F1   [8]  03 22 F1 A0 00 00 00 00   '."......'

can0  TX - -  18DA21F1   [8]  03 22 F1 A0 00 00 00 00   '."......'

can0  TX - -  18DA22F1   [8]  03 22 F1 A0 00 00 00 00   '."......'

can0  TX - -  18DA23F1   [8]  03 22 F1 A0 00 00 00 00   '."......'

can0  TX - -  18DA24F1   [8]  03 22 F1 A0 00 00 00 00   '."......'

can0  TX - -  18DA25F1   [8]  03 22 F1 A0 00 00 00 00   '."......'

can0  TX - -  18DA26F1   [8]  03 22 F1 A0 00 00 00 00   '."......'

can0  TX - -  18DA27F1   [8]  03 22 F1 A0 00 00 00 00   '."......'

can0  RX - -  18DAF128   [8]  06 50 03 00 32 01 F4 00   '.P..2...'
can0  TX - -  18DA28F1   [8]  03 22 F1 A0 00 00 00 00   '."......'
can0  RX - -  18DAF128   [8]  03 7F 22 78 00 00 00 00   '.."x....'
can0  RX - -  18DAF128   [8]  10 43 62 F1 A0 37 31 37   '.Cb..717'
can0  TX - -  18DA28F1   [8]  30 00 00 00 00 00 00 00   '0.......'
can0  RX - -  18DAF128   [8]  21 35 34 38 35 33 20 20   '!54853  '
can0  RX - -  18DAF128   [8]  22 20 20 20 20 20 20 20   '"       '
can0  RX - -  18DAF128   [8]  23 20 20 20 20 20 20 20   '#       '
can0  RX - -  18DAF128   [8]  24 20 20 20 20 30 32 36   '$    026'
can0  RX - -  18DAF128   [8]  25 35 38 30 31 30 38 39   '%5801089'
can0  RX - -  18DAF128   [8]  26 20 00 42 42 20 36 36   '& .BB 66'
can0  RX - -  18DAF128   [8]  27 37 39 34 20 20 20 11   ''794   .'
can0  RX - -  18DAF128   [8]  28 04 20 20 20 20 20 20   '(.      '
can0  RX - -  18DAF128   [8]  29 EC 07 85 86 D3 00 00   ').......'

can0  TX - -  18DA29F1   [8]  03 22 F1 A0 00 00 00 00   '."......'

can0  TX - -  18DA2AF1   [8]  03 22 F1 A0 00 00 00 00   '."......'

can0  TX - -  18DA2BF1   [8]  03 22 F1 A0 00 00 00 00   '."......'

can0  TX - -  18DA2CF1   [8]  03 22 F1 A0 00 00 00 00   '."......'

can0  TX - -  18DA2DF1   [8]  03 22 F1 A0 00 00 00 00   '."......'

can0  TX - -  18DA2EF1   [8]  03 22 F1 A0 00 00 00 00   '."......'

can0  TX - -  18DA2FF1   [8]  03 22 F1 A0 00 00 00 00   '."......'

can0  RX - -  18DAF130   [7]  06 50 03 00 32 01 F4      '.P..2..'
can0  TX - -  18DA30F1   [8]  03 22 F1 A0 00 00 00 00   '."......'
can0  RX - -  18DAF130   [8]  10 43 62 F1 A0 37 33 35   '.Cb..735'
can0  TX - -  18DA30F1   [8]  30 00 00 00 00 00 00 00   '0.......'
can0  RX - -  18DAF130   [8]  21 35 32 36 33 39 31 20   '!526391 '
can0  RX - -  18DAF130   [8]  22 20 20 20 20 20 20 20   '"       '
can0  RX - -  18DAF130   [8]  23 20 20 20 20 20 20 20   '#       '
can0  RX - -  18DAF130   [8]  24 20 20 20 20 32 38 31   '$    281'
can0  RX - -  18DAF130   [8]  25 35 38 37 39 38 30 30   '%5879800'
can0  RX - -  18DAF130   [8]  26 36 00 32 38 32 33 33   '&6.28233'
can0  RX - -  18DAF130   [8]  27 36 31 34 30 31 41 01   ''61401A.'
can0  RX - -  18DAF130   [8]  28 41 20 20 20 20 20 20   '(A      '
can0  RX - -  18DAF130   [6]  29 31 83 98 89 2A         ')1...*'

can0  TX - -  18DA31F1   [8]  03 22 F1 A0 00 00 00 00   '."......'

can0  TX - -  18DA32F1   [8]  03 22 F1 A0 00 00 00 00   '."......'

can0  TX - -  18DA33F1   [8]  03 22 F1 A0 00 00 00 00   '."......'

can0  TX - -  18DA34F1   [8]  03 22 F1 A0 00 00 00 00   '."......'

can0  TX - -  18DA35F1   [8]  03 22 F1 A0 00 00 00 00   '."......'

can0  TX - -  18DA36F1   [8]  03 22 F1 A0 00 00 00 00   '."......'

can0  TX - -  18DA37F1   [8]  03 22 F1 A0 00 00 00 00   '."......'

can0  TX - -  18DA38F1   [8]  03 22 F1 A0 00 00 00 00   '."......'

can0  TX - -  18DA39F1   [8]  03 22 F1 A0 00 00 00 00   '."......'

can0  TX - -  18DA3AF1   [8]  03 22 F1 A0 00 00 00 00   '."......'

can0  TX - -  18DA3BF1   [8]  03 22 F1 A0 00 00 00 00   '."......'

can0  TX - -  18DA3CF1   [8]  03 22 F1 A0 00 00 00 00   '."......'

can0  TX - -  18DA3DF1   [8]  03 22 F1 A0 00 00 00 00   '."......'

can0  TX - -  18DA3EF1   [8]  03 22 F1 A0 00 00 00 00   '."......'

can0  TX - -  18DA3FF1   [8]  03 22 F1 A0 00 00 00 00   '."......'

can0  RX - -  18DAF140   [7]  06 50 03 00 32 01 F4      '.P..2..'
can0  TX - -  18DA40F1   [8]  03 22 F1 A0 00 00 00 00   '."......'
can0  RX - -  18DAF140   [8]  10 43 62 F1 A0 35 31 38   '.Cb..518'
can0  TX - -  18DA40F1   [8]  30 00 00 00 00 00 00 00   '0.......'
can0  RX - -  18DAF140   [8]  21 34 33 39 37 30 20 20   '!43970  '
can0  RX - -  18DAF140   [8]  22 20 5A 46 41 33 31 32   '" ZFA312'
can0  RX - -  18DAF140   [8]  23 30 30 30 30 30 35 33   '#0000053'
can0  RX - -  18DAF140   [8]  24 34 38 32 34 30 33 31   '$4824031'
can0  RX - -  18DAF140   [8]  25 32 4C 34 45 55 33 30   '%2L4EU30'
can0  RX - -  18DAF140   [8]  26 31 03 32 38 32 31 38   '&1.28218'
can0  RX - -  18DAF140   [8]  27 33 36 32 20 20 00 0C   ''362  ..'
can0  RX - -  18DAF140   [8]  28 09 30 30 30 36 37 34   '(.000674'
can0  RX - -  18DAF140   [6]  29 40 83 D6 89 F7         ')@....'

can0  TX - -  18DA41F1   [8]  03 22 F1 A0 00 00 00 00   '."......'

can0  TX - -  18DA42F1   [8]  03 22 F1 A0 00 00 00 00   '."......'

can0  TX - -  18DA43F1   [8]  03 22 F1 A0 00 00 00 00   '."......'

can0  TX - -  18DA44F1   [8]  03 22 F1 A0 00 00 00 00   '."......'

can0  TX - -  18DA45F1   [8]  03 22 F1 A0 00 00 00 00   '."......'

can0  TX - -  18DA46F1   [8]  03 22 F1 A0 00 00 00 00   '."......'

can0  TX - -  18DA47F1   [8]  03 22 F1 A0 00 00 00 00   '."......'

can0  TX - -  18DA48F1   [8]  03 22 F1 A0 00 00 00 00   '."......'

can0  TX - -  18DA49F1   [8]  03 22 F1 A0 00 00 00 00   '."......'

can0  TX - -  18DA4AF1   [8]  03 22 F1 A0 00 00 00 00   '."......'

can0  TX - -  18DA4BF1   [8]  03 22 F1 A0 00 00 00 00   '."......'

can0  TX - -  18DA4CF1   [8]  03 22 F1 A0 00 00 00 00   '."......'

can0  TX - -  18DA4DF1   [8]  03 22 F1 A0 00 00 00 00   '."......'

can0  TX - -  18DA4EF1   [8]  03 22 F1 A0 00 00 00 00   '."......'

can0  TX - -  18DA4FF1   [8]  03 22 F1 A0 00 00 00 00   '."......'

can0  TX - -  18DA50F1   [8]  03 22 F1 A0 00 00 00 00   '."......'

can0  TX - -  18DA51F1   [8]  03 22 F1 A0 00 00 00 00   '."......'

can0  TX - -  18DA52F1   [8]  03 22 F1 A0 00 00 00 00   '."......'

can0  TX - -  18DA53F1   [8]  03 22 F1 A0 00 00 00 00   '."......'

can0  TX - -  18DA54F1   [8]  03 22 F1 A0 00 00 00 00   '."......'

can0  TX - -  18DA55F1   [8]  03 22 F1 A0 00 00 00 00   '."......'

can0  TX - -  18DA56F1   [8]  03 22 F1 A0 00 00 00 00   '."......'

can0  TX - -  18DA57F1   [8]  03 22 F1 A0 00 00 00 00   '."......'

can0  TX - -  18DA58F1   [8]  03 22 F1 A0 00 00 00 00   '."......'

can0  TX - -  18DA59F1   [8]  03 22 F1 A0 00 00 00 00   '."......'

can0  TX - -  18DA5AF1   [8]  03 22 F1 A0 00 00 00 00   '."......'

can0  TX - -  18DA5BF1   [8]  03 22 F1 A0 00 00 00 00   '."......'

can0  TX - -  18DA5CF1   [8]  03 22 F1 A0 00 00 00 00   '."......'

can0  TX - -  18DA5DF1   [8]  03 22 F1 A0 00 00 00 00   '."......'

can0  TX - -  18DA5EF1   [8]  03 22 F1 A0 00 00 00 00   '."......'

can0  TX - -  18DA5FF1   [8]  03 22 F1 A0 00 00 00 00   '."......'

can0  TX - -  18DA60F1   [8]  03 22 F1 A0 00 00 00 00   '."......'

can0  TX - -  18DA61F1   [8]  03 22 F1 A0 00 00 00 00   '."......'

can0  TX - -  18DA62F1   [8]  03 22 F1 A0 00 00 00 00   '."......'

can0  TX - -  18DA63F1   [8]  03 22 F1 A0 00 00 00 00   '."......'

can0  TX - -  18DA64F1   [8]  03 22 F1 A0 00 00 00 00   '."......'

can0  TX - -  18DA65F1   [8]  03 22 F1 A0 00 00 00 00   '."......'

can0  TX - -  18DA66F1   [8]  03 22 F1 A0 00 00 00 00   '."......'

can0  TX - -  18DA67F1   [8]  03 22 F1 A0 00 00 00 00   '."......'

can0  TX - -  18DA68F1   [8]  03 22 F1 A0 00 00 00 00   '."......'

can0  TX - -  18DA69F1   [8]  03 22 F1 A0 00 00 00 00   '."......'

can0  TX - -  18DA6AF1   [8]  03 22 F1 A0 00 00 00 00   '."......'

can0  TX - -  18DA6BF1   [8]  03 22 F1 A0 00 00 00 00   '."......'

can0  TX - -  18DA6CF1   [8]  03 22 F1 A0 00 00 00 00   '."......'

can0  TX - -  18DA6DF1   [8]  03 22 F1 A0 00 00 00 00   '."......'

can0  TX - -  18DA6EF1   [8]  03 22 F1 A0 00 00 00 00   '."......'

can0  TX - -  18DA6FF1   [8]  03 22 F1 A0 00 00 00 00   '."......'

can0  TX - -  18DA70F1   [8]  03 22 F1 A0 00 00 00 00   '."......'

can0  TX - -  18DA71F1   [8]  03 22 F1 A0 00 00 00 00   '."......'

can0  TX - -  18DA72F1   [8]  03 22 F1 A0 00 00 00 00   '."......'

can0  TX - -  18DA73F1   [8]  03 22 F1 A0 00 00 00 00   '."......'

can0  TX - -  18DA74F1   [8]  03 22 F1 A0 00 00 00 00   '."......'

can0  TX - -  18DA75F1   [8]  03 22 F1 A0 00 00 00 00   '."......'

can0  TX - -  18DA76F1   [8]  03 22 F1 A0 00 00 00 00   '."......'

can0  TX - -  18DA77F1   [8]  03 22 F1 A0 00 00 00 00   '."......'

can0  TX - -  18DA78F1   [8]  03 22 F1 A0 00 00 00 00   '."......'

can0  TX - -  18DA79F1   [8]  03 22 F1 A0 00 00 00 00   '."......'

can0  TX - -  18DA7AF1   [8]  03 22 F1 A0 00 00 00 00   '."......'

can0  TX - -  18DA7BF1   [8]  03 22 F1 A0 00 00 00 00   '."......'

can0  TX - -  18DA7CF1   [8]  03 22 F1 A0 00 00 00 00   '."......'

can0  TX - -  18DA7DF1   [8]  03 22 F1 A0 00 00 00 00   '."......'

can0  TX - -  18DA7EF1   [8]  03 22 F1 A0 00 00 00 00   '."......'

can0  TX - -  18DA7FF1   [8]  03 22 F1 A0 00 00 00 00   '."......'

can0  TX - -  18DA80F1   [8]  03 22 F1 A0 00 00 00 00   '."......'

can0  TX - -  18DA81F1   [8]  03 22 F1 A0 00 00 00 00   '."......'

can0  TX - -  18DA82F1   [8]  03 22 F1 A0 00 00 00 00   '."......'

can0  TX - -  18DA83F1   [8]  03 22 F1 A0 00 00 00 00   '."......'

can0  TX - -  18DA84F1   [8]  03 22 F1 A0 00 00 00 00   '."......'

can0  TX - -  18DA85F1   [8]  03 22 F1 A0 00 00 00 00   '."......'

can0  TX - -  18DA86F1   [8]  03 22 F1 A0 00 00 00 00   '."......'

can0  TX - -  18DA87F1   [8]  03 22 F1 A0 00 00 00 00   '."......'

can0  TX - -  18DA88F1   [8]  03 22 F1 A0 00 00 00 00   '."......'

can0  TX - -  18DA89F1   [8]  03 22 F1 A0 00 00 00 00   '."......'

can0  TX - -  18DA8AF1   [8]  03 22 F1 A0 00 00 00 00   '."......'

can0  TX - -  18DA8BF1   [8]  03 22 F1 A0 00 00 00 00   '."......'

can0  TX - -  18DA8CF1   [8]  03 22 F1 A0 00 00 00 00   '."......'

can0  TX - -  18DA8DF1   [8]  03 22 F1 A0 00 00 00 00   '."......'

can0  TX - -  18DA8EF1   [8]  03 22 F1 A0 00 00 00 00   '."......'

can0  TX - -  18DA8FF1   [8]  03 22 F1 A0 00 00 00 00   '."......'

can0  TX - -  18DA90F1   [8]  03 22 F1 A0 00 00 00 00   '."......'

can0  TX - -  18DA91F1   [8]  03 22 F1 A0 00 00 00 00   '."......'

can0  TX - -  18DA92F1   [8]  03 22 F1 A0 00 00 00 00   '."......'

can0  TX - -  18DA93F1   [8]  03 22 F1 A0 00 00 00 00   '."......'

can0  TX - -  18DA94F1   [8]  03 22 F1 A0 00 00 00 00   '."......'

can0  TX - -  18DA95F1   [8]  03 22 F1 A0 00 00 00 00   '."......'

can0  TX - -  18DA96F1   [8]  03 22 F1 A0 00 00 00 00   '."......'

can0  TX - -  18DA97F1   [8]  03 22 F1 A0 00 00 00 00   '."......'

can0  TX - -  18DA98F1   [8]  03 22 F1 A0 00 00 00 00   '."......'

can0  TX - -  18DA99F1   [8]  03 22 F1 A0 00 00 00 00   '."......'

can0  TX - -  18DA9AF1   [8]  03 22 F1 A0 00 00 00 00   '."......'

can0  TX - -  18DA9BF1   [8]  03 22 F1 A0 00 00 00 00   '."......'

can0  TX - -  18DA9CF1   [8]  03 22 F1 A0 00 00 00 00   '."......'

can0  TX - -  18DA9DF1   [8]  03 22 F1 A0 00 00 00 00   '."......'

can0  TX - -  18DA9EF1   [8]  03 22 F1 A0 00 00 00 00   '."......'

can0  TX - -  18DA9FF1   [8]  03 22 F1 A0 00 00 00 00   '."......'

can0  TX - -  18DAA0F1   [8]  03 22 F1 A0 00 00 00 00   '."......'

can0  TX - -  18DAA1F1   [8]  03 22 F1 A0 00 00 00 00   '."......'

can0  TX - -  18DAA2F1   [8]  03 22 F1 A0 00 00 00 00   '."......'

can0  TX - -  18DAA3F1   [8]  03 22 F1 A0 00 00 00 00   '."......'

can0  TX - -  18DAA4F1   [8]  03 22 F1 A0 00 00 00 00   '."......'

can0  TX - -  18DAA5F1   [8]  03 22 F1 A0 00 00 00 00   '."......'

can0  TX - -  18DAA6F1   [8]  03 22 F1 A0 00 00 00 00   '."......'

can0  TX - -  18DAA7F1   [8]  03 22 F1 A0 00 00 00 00   '."......'

can0  TX - -  18DAA8F1   [8]  03 22 F1 A0 00 00 00 00   '."......'

can0  TX - -  18DAA9F1   [8]  03 22 F1 A0 00 00 00 00   '."......'

can0  TX - -  18DAAAF1   [8]  03 22 F1 A0 00 00 00 00   '."......'

can0  TX - -  18DAABF1   [8]  03 22 F1 A0 00 00 00 00   '."......'

can0  TX - -  18DAACF1   [8]  03 22 F1 A0 00 00 00 00   '."......'

can0  TX - -  18DAADF1   [8]  03 22 F1 A0 00 00 00 00   '."......'

can0  TX - -  18DAAEF1   [8]  03 22 F1 A0 00 00 00 00   '."......'

can0  TX - -  18DAAFF1   [8]  03 22 F1 A0 00 00 00 00   '."......'

can0  TX - -  18DAB0F1   [8]  03 22 F1 A0 00 00 00 00   '."......'

can0  TX - -  18DAB1F1   [8]  03 22 F1 A0 00 00 00 00   '."......'

can0  TX - -  18DAB2F1   [8]  03 22 F1 A0 00 00 00 00   '."......'

can0  TX - -  18DAB3F1   [8]  03 22 F1 A0 00 00 00 00   '."......'

can0  TX - -  18DAB4F1   [8]  03 22 F1 A0 00 00 00 00   '."......'

can0  TX - -  18DAB5F1   [8]  03 22 F1 A0 00 00 00 00   '."......'

can0  TX - -  18DAB6F1   [8]  03 22 F1 A0 00 00 00 00   '."......'

can0  TX - -  18DAB7F1   [8]  03 22 F1 A0 00 00 00 00   '."......'

can0  TX - -  18DAB8F1   [8]  03 22 F1 A0 00 00 00 00   '."......'

can0  TX - -  18DAB9F1   [8]  03 22 F1 A0 00 00 00 00   '."......'

can0  TX - -  18DABAF1   [8]  03 22 F1 A0 00 00 00 00   '."......'

can0  TX - -  18DABBF1   [8]  03 22 F1 A0 00 00 00 00   '."......'

can0  TX - -  18DABCF1   [8]  03 22 F1 A0 00 00 00 00   '."......'

can0  TX - -  18DABDF1   [8]  03 22 F1 A0 00 00 00 00   '."......'

can0  TX - -  18DABEF1   [8]  03 22 F1 A0 00 00 00 00   '."......'

can0  TX - -  18DABFF1   [8]  03 22 F1 A0 00 00 00 00   '."......'

can0  TX - -  18DAC0F1   [8]  03 22 F1 A0 00 00 00 00   '."......'

can0  TX - -  18DAC1F1   [8]  03 22 F1 A0 00 00 00 00   '."......'

can0  TX - -  18DAC2F1   [8]  03 22 F1 A0 00 00 00 00   '."......'

can0  TX - -  18DAC3F1   [8]  03 22 F1 A0 00 00 00 00   '."......'

can0  TX - -  18DAC4F1   [8]  03 22 F1 A0 00 00 00 00   '."......'

can0  TX - -  18DAC5F1   [8]  03 22 F1 A0 00 00 00 00   '."......'

can0  TX - -  18DAC6F1   [8]  03 22 F1 A0 00 00 00 00   '."......'

can0  TX - -  18DAC7F1   [8]  03 22 F1 A0 00 00 00 00   '."......'

can0  TX - -  18DAC8F1   [8]  03 22 F1 A0 00 00 00 00   '."......'

can0  TX - -  18DAC9F1   [8]  03 22 F1 A0 00 00 00 00   '."......'

can0  TX - -  18DACAF1   [8]  03 22 F1 A0 00 00 00 00   '."......'

can0  TX - -  18DACBF1   [8]  03 22 F1 A0 00 00 00 00   '."......'

can0  TX - -  18DACCF1   [8]  03 22 F1 A0 00 00 00 00   '."......'

can0  TX - -  18DACDF1   [8]  03 22 F1 A0 00 00 00 00   '."......'

can0  TX - -  18DACEF1   [8]  03 22 F1 A0 00 00 00 00   '."......'

can0  TX - -  18DACFF1   [8]  03 22 F1 A0 00 00 00 00   '."......'

can0  TX - -  18DAD0F1   [8]  03 22 F1 A0 00 00 00 00   '."......'

can0  TX - -  18DAD1F1   [8]  03 22 F1 A0 00 00 00 00   '."......'

can0  TX - -  18DAD2F1   [8]  03 22 F1 A0 00 00 00 00   '."......'

can0  TX - -  18DAD3F1   [8]  03 22 F1 A0 00 00 00 00   '."......'

can0  TX - -  18DAD4F1   [8]  03 22 F1 A0 00 00 00 00   '."......'

can0  TX - -  18DAD5F1   [8]  03 22 F1 A0 00 00 00 00   '."......'

can0  TX - -  18DAD6F1   [8]  03 22 F1 A0 00 00 00 00   '."......'

can0  TX - -  18DAD7F1   [8]  03 22 F1 A0 00 00 00 00   '."......'

can0  TX - -  18DAD8F1   [8]  03 22 F1 A0 00 00 00 00   '."......'

can0  TX - -  18DAD9F1   [8]  03 22 F1 A0 00 00 00 00   '."......'

can0  TX - -  18DADAF1   [8]  03 22 F1 A0 00 00 00 00   '."......'

can0  TX - -  18DADBF1   [8]  03 22 F1 A0 00 00 00 00   '."......'

can0  TX - -  18DADCF1   [8]  03 22 F1 A0 00 00 00 00   '."......'

can0  TX - -  18DADDF1   [8]  03 22 F1 A0 00 00 00 00   '."......'

can0  TX - -  18DADEF1   [8]  03 22 F1 A0 00 00 00 00   '."......'

can0  TX - -  18DADFF1   [8]  03 22 F1 A0 00 00 00 00   '."......'

can0  TX - -  18DAE0F1   [8]  03 22 F1 A0 00 00 00 00   '."......'

can0  TX - -  18DAE1F1   [8]  03 22 F1 A0 00 00 00 00   '."......'

can0  TX - -  18DAE2F1   [8]  03 22 F1 A0 00 00 00 00   '."......'

can0  TX - -  18DAE3F1   [8]  03 22 F1 A0 00 00 00 00   '."......'

can0  TX - -  18DAE4F1   [8]  03 22 F1 A0 00 00 00 00   '."......'

can0  TX - -  18DAE5F1   [8]  03 22 F1 A0 00 00 00 00   '."......'

can0  TX - -  18DAE6F1   [8]  03 22 F1 A0 00 00 00 00   '."......'

can0  TX - -  18DAE7F1   [8]  03 22 F1 A0 00 00 00 00   '."......'

can0  TX - -  18DAE8F1   [8]  03 22 F1 A0 00 00 00 00   '."......'

can0  TX - -  18DAE9F1   [8]  03 22 F1 A0 00 00 00 00   '."......'

can0  TX - -  18DAEAF1   [8]  03 22 F1 A0 00 00 00 00   '."......'

can0  TX - -  18DAEBF1   [8]  03 22 F1 A0 00 00 00 00   '."......'

can0  TX - -  18DAECF1   [8]  03 22 F1 A0 00 00 00 00   '."......'

can0  TX - -  18DAEDF1   [8]  03 22 F1 A0 00 00 00 00   '."......'

can0  TX - -  18DAEEF1   [8]  03 22 F1 A0 00 00 00 00   '."......'

can0  TX - -  18DAEFF1   [8]  03 22 F1 A0 00 00 00 00   '."......'

can0  TX - -  18DAF0F1   [8]  03 22 F1 A0 00 00 00 00   '."......'

can0  TX - -  18DAF1F1   [8]  03 22 F1 A0 00 00 00 00   '."......'

can0  TX - -  18DAF2F1   [8]  03 22 F1 A0 00 00 00 00   '."......'

can0  TX - -  18DAF3F1   [8]  03 22 F1 A0 00 00 00 00   '."......'

can0  TX - -  18DAF4F1   [8]  03 22 F1 A0 00 00 00 00   '."......'

can0  TX - -  18DAF5F1   [8]  03 22 F1 A0 00 00 00 00   '."......'

can0  TX - -  18DAF6F1   [8]  03 22 F1 A0 00 00 00 00   '."......'

can0  TX - -  18DAF7F1   [8]  03 22 F1 A0 00 00 00 00   '."......'

can0  TX - -  18DAF8F1   [8]  03 22 F1 A0 00 00 00 00   '."......'

can0  TX - -  18DAF9F1   [8]  03 22 F1 A0 00 00 00 00   '."......'

can0  TX - -  18DAFAF1   [8]  03 22 F1 A0 00 00 00 00   '."......'

can0  TX - -  18DAFBF1   [8]  03 22 F1 A0 00 00 00 00   '."......'

can0  TX - -  18DAFCF1   [8]  03 22 F1 A0 00 00 00 00   '."......'

can0  TX - -  18DAFDF1   [8]  03 22 F1 A0 00 00 00 00   '."......'

can0  TX - -  18DAFEF1   [8]  03 22 F1 A0 00 00 00 00   '."......'

can0  TX - -  18DAFFF1   [8]  03 22 F1 A0 00 00 00 00   '."......'

can0  TX - -  18DA10F1   [8]  03 22 F1 A0 00 00 00 00   '."......'

can0  TX - -  18DA10F1   [8]  03 22 F1 A0 00 00 00 00   '."......'
