  can0  TX - -  700   [8]  02 10 03 00 00 00 00 00   '........'
  can0  RX - -  77D   [8]  06 50 03 00 32 01 F4 AA   '.P..2...'
  can0  TX - -  700   [8]  02 10 03 00 00 00 00 00   '........'
  can0  RX - -  77E   [8]  03 7F 10 21 AA AA AA AA   '...!....'
  can0  RX - -  77B   [8]  03 7F 10 21 AA AA AA AA   '...!....'
  can0  TX - -  700   [8]  02 10 03 00 00 00 00 00   '........'
  can0  RX - -  77D   [8]  06 50 03 00 32 01 F4 AA   '.P..2...'
  can0  RX - -  77E   [8]  03 7F 10 21 AA AA AA AA   '...!....'
  can0  RX - -  77B   [8]  03 7F 10 21 AA AA AA AA   '...!....'
  can0  RX - -  7E8   [8]  06 50 03 00 32 01 F4 AA   '.P..2...'
  can0  TX - -  700   [8]  02 10 03 00 00 00 00 00   '........'
  can0  TX - -  700   [8]  02 27 03 00 00 00 00 00   '.'......'
  can0  RX - -  77E   [8]  06 50 03 00 28 00 C8 AA   '.P..(...'
  can0  RX - -  77B   [8]  06 50 03 00 28 00 C8 AA   '.P..(...'
  can0  RX - -  77D   [8]  06 50 03 00 32 01 F4 AA   '.P..2...'
  can0  TX - -  703   [8]  02 10 03 00 00 00 00 00   '........'
  can0  RX - -  7D6   [8]  06 50 03 00 32 01 F4 AA   '.P..2...'
  can0  TX - -  704   [8]  02 10 03 00 00 00 00 00   '........'
  can0  RX - -  774   [8]  03 7F 10 21 AA AA AA AA   '...!....'
  can0  RX - -  7BB   [8]  06 50 03 00 32 01 F4 AA   '.P..2...'
  can0  TX - -  704   [8]  02 10 03 00 00 00 00 00   '........'
  can0  TX - -  704   [8]  02 27 03 00 00 00 00 00   '.'......'
  can0  TX - -  704   [8]  02 10 03 00 00 00 00 00   '........'
  can0  RX - -  7E8   [8]  06 50 03 00 32 01 F4 AA   '.P..2...'
  can0  TX - -  704   [8]  02 27 03 00 00 00 00 00   '.'......'
  can0  TX - -  704   [8]  02 10 03 00 00 00 00 00   '........'
  can0  TX - -  704   [8]  02 10 03 00 00 00 00 00   '........'
  can0  RX - -  7D6   [8]  03 7F 10 21 AA AA AA AA   '...!....'
  can0  TX - -  704   [8]  02 27 03 00 00 00 00 00   '.'......'
  can0  TX - -  704   [8]  02 10 03 00 00 00 00 00   '........'
  can0  TX - -  704   [8]  02 10 03 00 00 00 00 00   '........'
  can0  RX - -  774   [8]  06 50 03 00 32 01 F4 AA   '.P..2...'
  can0  TX - -  704   [8]  02 27 03 00 00 00 00 00   '.'......'
  can0  RX - -  7D6   [8]  06 50 03 00 32 01 F4 AA   '.P..2...'
  can0  TX - -  704   [8]  02 10 03 00 00 00 00 00   '........'
  can0  RX - -  77F   [8]  06 50 03 00 4B 00 FA AA   '.P..K...'
  can0  TX - -  704   [8]  02 27 03 00 00 00 00 00   '.'......'
  can0  TX - -  704   [8]  02 10 03 00 00 00 00 00   '........'
  can0  TX - -  704   [8]  02 10 03 00 00 00 00 00   '........'
  can0  TX - -  704   [8]  02 10 03 00 00 00 00 00   '........'
  can0  TX - -  704   [8]  02 10 03 00 00 00 00 00   '........'
  can0  TX - -  704   [8]  02 10 03 00 00 00 00 00   '........'
  can0  TX - -  704   [8]  02 10 03 00 00 00 00 00   '........'
  can0  TX - -  704   [8]  02 10 03 00 00 00 00 00   '........'
  can0  TX - -  704   [8]  02 10 03 00 00 00 00 00   '........'
  can0  TX - -  706   [8]  02 10 03 00 00 00 00 00   '........'
  can0  TX - -  707   [8]  02 10 03 00 00 00 00 00   '........'
  can0  TX - -  708   [8]  02 10 03 00 00 00 00 00   '........'
  can0  TX - -  70A   [8]  02 10 03 00 00 00 00 00   '........'
  can0  RX - -  774   [8]  06 50 03 00 32 01 F4 AA   '.P..2...'
  can0  TX - -  70A   [8]  02 10 03 00 00 00 00 00   '........'
  can0  RX - -  774   [8]  06 50 03 00 32 01 F4 AA   '.P..2...'
  can0  TX - -  70A   [8]  02 27 03 00 00 00 00 00   '.'......'
  can0  RX - -  774   [8]  06 67 03 F9 00 4A FF AA   '.g...J..'
  can0  TX - -  70A   [8]  02 10 03 00 00 00 00 00   '........'
  can0  RX - -  774   [8]  06 50 03 00 32 01 F4 AA   '.P..2...'
  can0  TX - -  70A   [8]  02 27 03 00 00 00 00 00   '.'......'
  can0  RX - -  774   [8]  06 67 03 05 8D 9A 50 AA   '.g....P.'
  can0  TX - -  70A   [8]  02 10 03 00 00 00 00 00   '........'
  can0  RX - -  774   [8]  06 50 03 00 32 01 F4 AA   '.P..2...'
  can0  TX - -  70A   [8]  02 27 03 00 00 00 00 00   '.'......'
  can0  RX - -  774   [8]  06 67 03 44 5B E7 74 AA   '.g.D[.t.'
  can0  TX - -  70A   [8]  02 10 03 00 00 00 00 00   '........'
  can0  RX - -  774   [8]  06 50 03 00 32 01 F4 AA   '.P..2...'
  can0  TX - -  70A   [8]  02 27 03 00 00 00 00 00   '.'......'
  can0  RX - -  774   [8]  06 67 03 33 44 35 8B AA   '.g.3D5..'
  can0  TX - -  70A   [8]  02 10 03 00 00 00 00 00   '........'
  can0  RX - -  774   [8]  06 50 03 00 32 01 F4 AA   '.P..2...'
  can0  TX - -  70A   [8]  02 27 03 00 00 00 00 00   '.'......'
  can0  RX - -  774   [8]  06 67 03 A1 D4 83 94 AA   '.g......'
  can0  TX - -  70A   [8]  02 10 03 00 00 00 00 00   '........'
  can0  RX - -  774   [8]  06 50 03 00 32 01 F4 AA   '.P..2...'
  can0  TX - -  70A   [8]  02 27 03 00 00 00 00 00   '.'......'
  can0  RX - -  774   [8]  06 67 03 AD 31 D1 A3 AA   '.g..1...'
  can0  TX - -  70A   [8]  02 10 03 00 00 00 00 00   '........'
  can0  RX - -  774   [8]  06 50 03 00 32 01 F4 AA   '.P..2...'
  can0  TX - -  70A   [8]  02 27 03 00 00 00 00 00   '.'......'
  can0  RX - -  774   [8]  06 67 03 0C 89 20 31 AA   '.g... 1.'
  can0  TX - -  70A   [8]  02 10 03 00 00 00 00 00   '........'
  can0  RX - -  774   [8]  06 50 03 00 32 01 F4 AA   '.P..2...'
  can0  TX - -  70A   [8]  02 27 03 00 00 00 00 00   '.'......'
  can0  RX - -  774   [8]  06 67 03 9D 8A 6E 67 AA   '.g...ng.'
  can0  TX - -  70A   [8]  02 10 03 00 00 00 00 00   '........'
  can0  RX - -  774   [8]  06 50 03 00 32 01 F4 AA   '.P..2...'
  can0  TX - -  70A   [8]  02 27 03 00 00 00 00 00   '.'......'
  can0  RX - -  774   [8]  06 67 03 A4 7F BC 64 AA   '.g....d.'
  can0  TX - -  70A   [8]  02 10 03 00 00 00 00 00   '........'
  can0  RX - -  774   [8]  06 50 03 00 32 01 F4 AA   '.P..2...'
  can0  TX - -  70A   [8]  02 27 03 00 00 00 00 00   '.'......'
  can0  RX - -  774   [8]  06 67 03 7F CB 0B 4D AA   '.g....M.'
  can0  TX - -  70A   [8]  02 10 03 00 00 00 00 00   '........'
  can0  RX - -  774   [8]  06 50 03 00 32 01 F4 AA   '.P..2...'
  can0  TX - -  70A   [8]  02 27 03 00 00 00 00 00   '.'......'
  can0  RX - -  774   [8]  06 67 03 D0 5A 58 D0 AA   '.g..ZX..'
  can0  TX - -  70A   [8]  02 10 03 00 00 00 00 00   '........'
  can0  RX - -  774   [8]  06 50 03 00 32 01 F4 AA   '.P..2...'
  can0  TX - -  70A   [8]  02 27 03 00 00 00 00 00   '.'......'
  can0  RX - -  774   [8]  06 67 03 8B 2A A7 75 AA   '.g..*.u.'
  can0  TX - -  70A   [8]  02 10 03 00 00 00 00 00   '........'
  can0  RX - -  774   [8]  06 50 03 00 32 01 F4 AA   '.P..2...'
  can0  TX - -  70A   [8]  02 27 03 00 00 00 00 00   '.'......'
  can0  RX - -  774   [8]  06 67 03 CC DB F4 A5 AA   '.g......'
  can0  TX - -  70A   [8]  02 10 03 00 00 00 00 00   '........'
  can0  RX - -  774   [8]  06 50 03 00 32 01 F4 AA   '.P..2...'
  can0  TX - -  70A   [8]  02 27 03 00 00 00 00 00   '.'......'
  can0  RX - -  774   [8]  06 67 03 55 54 42 9C AA   '.g.UTB..'
  can0  TX - -  70A   [8]  02 10 03 00 00 00 00 00   '........'
  can0  RX - -  774   [8]  06 50 03 00 32 01 F4 AA   '.P..2...'
  can0  TX - -  70A   [8]  02 27 03 00 00 00 00 00   '.'......'
  can0  RX - -  774   [8]  06 67 03 F4 D7 90 D8 AA   '.g......'
  can0  TX - -  711   [8]  02 10 03 00 00 00 00 00   '........'
  can0  RX - -  77B   [8]  06 50 03 00 28 00 C8 AA   '.P..(...'
  can0  TX - -  711   [8]  02 10 03 00 00 00 00 00   '........'
  can0  RX - -  77B   [8]  06 50 03 00 28 00 C8 AA   '.P..(...'
  can0  TX - -  711   [8]  02 27 03 00 00 00 00 00   '.'......'
  can0  RX - -  77B   [8]  06 67 03 6E 2B CF 2F AA   '.g.n+./.'
  can0  TX - -  711   [8]  02 10 03 00 00 00 00 00   '........'
  can0  RX - -  77B   [8]  06 50 03 00 28 00 C8 AA   '.P..(...'
  can0  TX - -  711   [8]  02 27 03 00 00 00 00 00   '.'......'
  can0  RX - -  77B   [8]  06 67 03 6E 2B CF 2F AA   '.g.n+./.'
  can0  TX - -  711   [8]  02 10 03 00 00 00 00 00   '........'
  can0  RX - -  77B   [8]  06 50 03 00 28 00 C8 AA   '.P..(...'
  can0  TX - -  711   [8]  02 27 03 00 00 00 00 00   '.'......'
  can0  RX - -  77B   [8]  06 67 03 6E 2B CF 2F AA   '.g.n+./.'
  can0  TX - -  711   [8]  02 10 03 00 00 00 00 00   '........'
  can0  RX - -  77B   [8]  06 50 03 00 28 00 C8 AA   '.P..(...'
  can0  TX - -  711   [8]  02 27 03 00 00 00 00 00   '.'......'
  can0  RX - -  77B   [8]  06 67 03 6E 2B CF 2F AA   '.g.n+./.'
  can0  TX - -  711   [8]  02 10 03 00 00 00 00 00   '........'
  can0  RX - -  77B   [8]  06 50 03 00 28 00 C8 AA   '.P..(...'
  can0  TX - -  711   [8]  02 27 03 00 00 00 00 00   '.'......'
  can0  RX - -  77B   [8]  06 67 03 6E 2B CF 2F AA   '.g.n+./.'
  can0  TX - -  711   [8]  02 10 03 00 00 00 00 00   '........'
  can0  RX - -  77B   [8]  06 50 03 00 28 00 C8 AA   '.P..(...'
  can0  TX - -  711   [8]  02 27 03 00 00 00 00 00   '.'......'
  can0  RX - -  77B   [8]  06 67 03 6E 2B CF 2F AA   '.g.n+./.'
  can0  TX - -  711   [8]  02 10 03 00 00 00 00 00   '........'
  can0  RX - -  77B   [8]  06 50 03 00 28 00 C8 AA   '.P..(...'
  can0  TX - -  711   [8]  02 27 03 00 00 00 00 00   '.'......'
  can0  RX - -  77B   [8]  06 67 03 6E 2B CF 2F AA   '.g.n+./.'
  can0  TX - -  711   [8]  02 10 03 00 00 00 00 00   '........'
  can0  RX - -  77B   [8]  06 50 03 00 28 00 C8 AA   '.P..(...'
  can0  TX - -  711   [8]  02 27 03 00 00 00 00 00   '.'......'
  can0  RX - -  77B   [8]  06 67 03 6E 2B CF 2F AA   '.g.n+./.'
  can0  TX - -  711   [8]  02 10 03 00 00 00 00 00   '........'
  can0  RX - -  77B   [8]  06 50 03 00 28 00 C8 AA   '.P..(...'
  can0  TX - -  711   [8]  02 27 03 00 00 00 00 00   '.'......'
  can0  RX - -  77B   [8]  06 67 03 6E 2B CF 2F AA   '.g.n+./.'
  can0  TX - -  711   [8]  02 10 03 00 00 00 00 00   '........'
  can0  RX - -  77B   [8]  06 50 03 00 28 00 C8 AA   '.P..(...'
  can0  TX - -  711   [8]  02 27 03 00 00 00 00 00   '.'......'
  can0  RX - -  77B   [8]  06 67 03 6E 2B CF 2F AA   '.g.n+./.'
  can0  TX - -  711   [8]  02 10 03 00 00 00 00 00   '........'
  can0  RX - -  77B   [8]  06 50 03 00 28 00 C8 AA   '.P..(...'
  can0  TX - -  711   [8]  02 27 03 00 00 00 00 00   '.'......'
  can0  RX - -  77B   [8]  06 67 03 6E 2B CF 2F AA   '.g.n+./.'
  can0  TX - -  711   [8]  02 10 03 00 00 00 00 00   '........'
  can0  RX - -  77B   [8]  06 50 03 00 28 00 C8 AA   '.P..(...'
  can0  TX - -  711   [8]  02 27 03 00 00 00 00 00   '.'......'
  can0  RX - -  77B   [8]  06 67 03 6E 2B CF 2F AA   '.g.n+./.'
  can0  TX - -  711   [8]  02 10 03 00 00 00 00 00   '........'
  can0  RX - -  77B   [8]  06 50 03 00 28 00 C8 AA   '.P..(...'
  can0  TX - -  711   [8]  02 27 03 00 00 00 00 00   '.'......'
  can0  RX - -  77B   [8]  06 67 03 6E 2B CF 2F AA   '.g.n+./.'
  can0  TX - -  711   [8]  02 10 03 00 00 00 00 00   '........'
  can0  RX - -  77B   [8]  06 50 03 00 28 00 C8 AA   '.P..(...'
  can0  TX - -  711   [8]  02 27 03 00 00 00 00 00   '.'......'
  can0  RX - -  77B   [8]  06 67 03 6E 2B CF 2F AA   '.g.n+./.'
  can0  TX - -  711   [8]  02 10 03 00 00 00 00 00   '........'
  can0  RX - -  77B   [8]  06 50 03 00 28 00 C8 AA   '.P..(...'
  can0  TX - -  711   [8]  02 27 03 00 00 00 00 00   '.'......'
  can0  RX - -  77B   [8]  06 67 03 6E 2B CF 2F AA   '.g.n+./.'
  can0  TX - -  713   [8]  02 10 03 00 00 00 00 00   '........'
  can0  RX - -  77D   [8]  06 50 03 00 32 01 F4 AA   '.P..2...'
  can0  TX - -  713   [8]  02 10 03 00 00 00 00 00   '........'
  can0  RX - -  77D   [8]  06 50 03 00 32 01 F4 AA   '.P..2...'
  can0  TX - -  713   [8]  02 27 03 00 00 00 00 00   '.'......'
  can0  RX - -  77D   [8]  03 7F 27 37 AA AA AA AA   '..'7....'
  can0  TX - -  714   [8]  02 10 03 00 00 00 00 00   '........'
  can0  RX - -  77E   [8]  06 50 03 00 28 00 C8 AA   '.P..(...'
  can0  TX - -  714   [8]  02 10 03 00 00 00 00 00   '........'
  can0  RX - -  77E   [8]  06 50 03 00 28 00 C8 AA   '.P..(...'
  can0  TX - -  714   [8]  02 27 03 00 00 00 00 00   '.'......'
  can0  RX - -  77E   [8]  06 67 03 44 2B 73 39 AA   '.g.D+s9.'
  can0  TX - -  714   [8]  02 10 03 00 00 00 00 00   '........'
  can0  RX - -  77E   [8]  06 50 03 00 28 00 C8 AA   '.P..(...'
  can0  TX - -  714   [8]  02 27 03 00 00 00 00 00   '.'......'
  can0  RX - -  77E   [8]  06 67 03 44 2B 73 39 AA   '.g.D+s9.'
  can0  TX - -  714   [8]  02 10 03 00 00 00 00 00   '........'
  can0  RX - -  77E   [8]  06 50 03 00 28 00 C8 AA   '.P..(...'
  can0  TX - -  714   [8]  02 27 03 00 00 00 00 00   '.'......'
  can0  RX - -  77E   [8]  06 67 03 44 2B 73 39 AA   '.g.D+s9.'
  can0  TX - -  714   [8]  02 10 03 00 00 00 00 00   '........'
  can0  RX - -  77E   [8]  06 50 03 00 28 00 C8 AA   '.P..(...'
  can0  TX - -  714   [8]  02 27 03 00 00 00 00 00   '.'......'
  can0  RX - -  77E   [8]  06 67 03 44 2B 73 39 AA   '.g.D+s9.'
  can0  TX - -  714   [8]  02 10 03 00 00 00 00 00   '........'
  can0  RX - -  77E   [8]  06 50 03 00 28 00 C8 AA   '.P..(...'
  can0  TX - -  714   [8]  02 27 03 00 00 00 00 00   '.'......'
  can0  RX - -  77E   [8]  06 67 03 44 2B 73 39 AA   '.g.D+s9.'
  can0  TX - -  714   [8]  02 10 03 00 00 00 00 00   '........'
  can0  RX - -  77E   [8]  06 50 03 00 28 00 C8 AA   '.P..(...'
  can0  TX - -  714   [8]  02 27 03 00 00 00 00 00   '.'......'
  can0  RX - -  77E   [8]  06 67 03 44 2B 73 39 AA   '.g.D+s9.'
  can0  TX - -  714   [8]  02 10 03 00 00 00 00 00   '........'
  can0  RX - -  77E   [8]  06 50 03 00 28 00 C8 AA   '.P..(...'
  can0  TX - -  714   [8]  02 27 03 00 00 00 00 00   '.'......'
  can0  RX - -  77E   [8]  06 67 03 44 2B 73 39 AA   '.g.D+s9.'
  can0  TX - -  714   [8]  02 10 03 00 00 00 00 00   '........'
  can0  RX - -  77E   [8]  06 50 03 00 28 00 C8 AA   '.P..(...'
  can0  TX - -  714   [8]  02 27 03 00 00 00 00 00   '.'......'
  can0  RX - -  77E   [8]  06 67 03 44 2B 73 39 AA   '.g.D+s9.'
  can0  TX - -  714   [8]  02 10 03 00 00 00 00 00   '........'
  can0  RX - -  77E   [8]  06 50 03 00 28 00 C8 AA   '.P..(...'
  can0  TX - -  714   [8]  02 27 03 00 00 00 00 00   '.'......'
  can0  RX - -  77E   [8]  06 67 03 44 2B 73 39 AA   '.g.D+s9.'
  can0  TX - -  714   [8]  02 10 03 00 00 00 00 00   '........'
  can0  RX - -  77E   [8]  06 50 03 00 28 00 C8 AA   '.P..(...'
  can0  TX - -  714   [8]  02 27 03 00 00 00 00 00   '.'......'
  can0  RX - -  77E   [8]  06 67 03 44 2B 73 39 AA   '.g.D+s9.'
  can0  TX - -  714   [8]  02 10 03 00 00 00 00 00   '........'
  can0  RX - -  77E   [8]  06 50 03 00 28 00 C8 AA   '.P..(...'
  can0  TX - -  714   [8]  02 27 03 00 00 00 00 00   '.'......'
  can0  RX - -  77E   [8]  06 67 03 44 2B 73 39 AA   '.g.D+s9.'
  can0  TX - -  714   [8]  02 10 03 00 00 00 00 00   '........'
  can0  RX - -  77E   [8]  06 50 03 00 28 00 C8 AA   '.P..(...'
  can0  TX - -  714   [8]  02 27 03 00 00 00 00 00   '.'......'
  can0  RX - -  77E   [8]  06 67 03 44 2B 73 39 AA   '.g.D+s9.'
  can0  TX - -  714   [8]  02 10 03 00 00 00 00 00   '........'
  can0  RX - -  77E   [8]  06 50 03 00 28 00 C8 AA   '.P..(...'
  can0  TX - -  714   [8]  02 27 03 00 00 00 00 00   '.'......'
  can0  RX - -  77E   [8]  06 67 03 44 2B 73 39 AA   '.g.D+s9.'
  can0  TX - -  714   [8]  02 10 03 00 00 00 00 00   '........'
  can0  RX - -  77E   [8]  06 50 03 00 28 00 C8 AA   '.P..(...'
  can0  TX - -  714   [8]  02 27 03 00 00 00 00 00   '.'......'
  can0  RX - -  77E   [8]  06 67 03 44 2B 73 39 AA   '.g.D+s9.'
  can0  TX - -  714   [8]  02 10 03 00 00 00 00 00   '........'
  can0  RX - -  77E   [8]  06 50 03 00 28 00 C8 AA   '.P..(...'
  can0  TX - -  714   [8]  02 27 03 00 00 00 00 00   '.'......'
  can0  RX - -  77E   [8]  06 67 03 44 2B 73 39 AA   '.g.D+s9.'
  can0  TX - -  715   [8]  02 10 03 00 00 00 00 00   '........'
  can0  RX - -  77F   [8]  06 50 03 00 4B 00 FA AA   '.P..K...'
  can0  TX - -  715   [8]  02 10 03 00 00 00 00 00   '........'
  can0  RX - -  77F   [8]  06 50 03 00 4B 00 FA AA   '.P..K...'
  can0  TX - -  715   [8]  02 27 03 00 00 00 00 00   '.'......'
  can0  RX - -  77F   [8]  06 67 03 92 A4 6B 67 AA   '.g...kg.'
  can0  TX - -  715   [8]  02 10 03 00 00 00 00 00   '........'
  can0  RX - -  77F   [8]  06 50 03 00 4B 00 FA AA   '.P..K...'
  can0  TX - -  715   [8]  02 27 03 00 00 00 00 00   '.'......'
  can0  RX - -  77F   [8]  06 67 03 92 A4 6B 67 AA   '.g...kg.'
  can0  TX - -  715   [8]  02 10 03 00 00 00 00 00   '........'
  can0  RX - -  77F   [8]  06 50 03 00 4B 00 FA AA   '.P..K...'
  can0  TX - -  715   [8]  02 27 03 00 00 00 00 00   '.'......'
  can0  RX - -  77F   [8]  06 67 03 92 A4 6B 67 AA   '.g...kg.'
  can0  TX - -  715   [8]  02 10 03 00 00 00 00 00   '........'
  can0  RX - -  77F   [8]  06 50 03 00 4B 00 FA AA   '.P..K...'
  can0  TX - -  715   [8]  02 27 03 00 00 00 00 00   '.'......'
  can0  RX - -  77F   [8]  06 67 03 92 A4 6B 67 AA   '.g...kg.'
  can0  TX - -  715   [8]  02 10 03 00 00 00 00 00   '........'
  can0  RX - -  77F   [8]  06 50 03 00 4B 00 FA AA   '.P..K...'
  can0  TX - -  715   [8]  02 27 03 00 00 00 00 00   '.'......'
  can0  RX - -  77F   [8]  06 67 03 92 A4 6B 67 AA   '.g...kg.'
  can0  TX - -  715   [8]  02 10 03 00 00 00 00 00   '........'
  can0  RX - -  77F   [8]  06 50 03 00 4B 00 FA AA   '.P..K...'
  can0  TX - -  715   [8]  02 27 03 00 00 00 00 00   '.'......'
  can0  RX - -  77F   [8]  06 67 03 92 A4 6B 67 AA   '.g...kg.'
  can0  TX - -  715   [8]  02 10 03 00 00 00 00 00   '........'
  can0  RX - -  77F   [8]  06 50 03 00 4B 00 FA AA   '.P..K...'
  can0  TX - -  715   [8]  02 27 03 00 00 00 00 00   '.'......'
  can0  RX - -  77F   [8]  06 67 03 92 A4 6B 67 AA   '.g...kg.'
  can0  TX - -  715   [8]  02 10 03 00 00 00 00 00   '........'
  can0  RX - -  77F   [8]  06 50 03 00 4B 00 FA AA   '.P..K...'
  can0  TX - -  715   [8]  02 27 03 00 00 00 00 00   '.'......'
  can0  RX - -  77F   [8]  06 67 03 92 A4 6B 67 AA   '.g...kg.'
  can0  TX - -  715   [8]  02 10 03 00 00 00 00 00   '........'
  can0  RX - -  77F   [8]  06 50 03 00 4B 00 FA AA   '.P..K...'
  can0  TX - -  715   [8]  02 27 03 00 00 00 00 00   '.'......'
  can0  RX - -  77F   [8]  06 67 03 92 A4 6B 67 AA   '.g...kg.'
  can0  TX - -  715   [8]  02 10 03 00 00 00 00 00   '........'
  can0  RX - -  77F   [8]  06 50 03 00 4B 00 FA AA   '.P..K...'
  can0  TX - -  715   [8]  02 27 03 00 00 00 00 00   '.'......'
  can0  RX - -  77F   [8]  06 67 03 92 A4 6B 67 AA   '.g...kg.'
  can0  TX - -  715   [8]  02 10 03 00 00 00 00 00   '........'
  can0  RX - -  77F   [8]  06 50 03 00 4B 00 FA AA   '.P..K...'
  can0  TX - -  715   [8]  02 27 03 00 00 00 00 00   '.'......'
  can0  RX - -  77F   [8]  06 67 03 92 A4 6B 67 AA   '.g...kg.'
  can0  TX - -  715   [8]  02 10 03 00 00 00 00 00   '........'
  can0  RX - -  77F   [8]  06 50 03 00 4B 00 FA AA   '.P..K...'
  can0  TX - -  715   [8]  02 27 03 00 00 00 00 00   '.'......'
  can0  RX - -  77F   [8]  06 67 03 92 A4 6B 67 AA   '.g...kg.'
  can0  TX - -  715   [8]  02 10 03 00 00 00 00 00   '........'
  can0  RX - -  77F   [8]  06 50 03 00 4B 00 FA AA   '.P..K...'
  can0  TX - -  715   [8]  02 27 03 00 00 00 00 00   '.'......'
  can0  RX - -  77F   [8]  06 67 03 92 A4 6B 67 AA   '.g...kg.'
  can0  TX - -  715   [8]  02 10 03 00 00 00 00 00   '........'
  can0  RX - -  77F   [8]  06 50 03 00 4B 00 FA AA   '.P..K...'
  can0  TX - -  715   [8]  02 27 03 00 00 00 00 00   '.'......'
  can0  RX - -  77F   [8]  06 67 03 92 A4 6B 67 AA   '.g...kg.'
  can0  TX - -  715   [8]  02 10 03 00 00 00 00 00   '........'
  can0  RX - -  77F   [8]  06 50 03 00 4B 00 FA AA   '.P..K...'
  can0  TX - -  715   [8]  02 27 03 00 00 00 00 00   '.'......'
  can0  RX - -  77F   [8]  06 67 03 92 A4 6B 67 AA   '.g...kg.'
  can0  TX - -  751   [8]  02 10 03 00 00 00 00 00   '........'
  can0  RX - -  7BB   [8]  06 67 03 14 D6 0F 27 AA   '.g....'.'
  can0  TX - -  76C   [8]  02 10 03 00 00 00 00 00   '........'
  can0  RX - -  7D6   [8]  06 50 03 00 32 01 F4 AA   '.P..2...'
  can0  TX - -  76C   [8]  02 10 03 00 00 00 00 00   '........'
  can0  RX - -  7D6   [8]  06 50 03 00 32 01 F4 AA   '.P..2...'
  can0  TX - -  76C   [8]  02 27 03 00 00 00 00 00   '.'......'
  can0  RX - -  7D6   [8]  03 7F 27 11 AA AA AA AA   '..'.....'
  can0  TX - -  76C   [8]  02 10 03 00 00 00 00 00   '........'
  can0  RX - -  7D6   [8]  06 50 03 00 32 01 F4 AA   '.P..2...'
  can0  TX - -  76C   [8]  02 27 03 00 00 00 00 00   '.'......'
  can0  RX - -  7D6   [8]  03 7F 27 11 AA AA AA AA   '..'.....'
  can0  TX - -  76C   [8]  02 10 03 00 00 00 00 00   '........'
  can0  RX - -  7D6   [8]  06 50 03 00 32 01 F4 AA   '.P..2...'
  can0  TX - -  76C   [8]  02 27 03 00 00 00 00 00   '.'......'
  can0  RX - -  7D6   [8]  03 7F 27 11 AA AA AA AA   '..'.....'
  can0  TX - -  76C   [8]  02 10 03 00 00 00 00 00   '........'
  can0  RX - -  7D6   [8]  06 50 03 00 32 01 F4 AA   '.P..2...'
  can0  TX - -  76C   [8]  02 27 03 00 00 00 00 00   '.'......'
  can0  RX - -  7D6   [8]  03 7F 27 11 AA AA AA AA   '..'.....'
  can0  TX - -  76C   [8]  02 10 03 00 00 00 00 00   '........'
  can0  RX - -  7D6   [8]  06 50 03 00 32 01 F4 AA   '.P..2...'
  can0  TX - -  76C   [8]  02 27 03 00 00 00 00 00   '.'......'
  can0  RX - -  7D6   [8]  03 7F 27 11 AA AA AA AA   '..'.....'
  can0  TX - -  76C   [8]  02 10 03 00 00 00 00 00   '........'
  can0  RX - -  7D6   [8]  06 50 03 00 32 01 F4 AA   '.P..2...'
  can0  TX - -  76C   [8]  02 27 03 00 00 00 00 00   '.'......'
  can0  RX - -  7D6   [8]  03 7F 27 11 AA AA AA AA   '..'.....'
  can0  TX - -  76C   [8]  02 10 03 00 00 00 00 00   '........'
  can0  RX - -  7D6   [8]  06 50 03 00 32 01 F4 AA   '.P..2...'
  can0  TX - -  76C   [8]  02 27 03 00 00 00 00 00   '.'......'
  can0  RX - -  7D6   [8]  03 7F 27 11 AA AA AA AA   '..'.....'
  can0  TX - -  76C   [8]  02 10 03 00 00 00 00 00   '........'
  can0  RX - -  7D6   [8]  06 50 03 00 32 01 F4 AA   '.P..2...'
  can0  TX - -  76C   [8]  02 27 03 00 00 00 00 00   '.'......'
  can0  RX - -  7D6   [8]  03 7F 27 11 AA AA AA AA   '..'.....'
  can0  TX - -  76C   [8]  02 10 03 00 00 00 00 00   '........'
  can0  RX - -  7D6   [8]  06 50 03 00 32 01 F4 AA   '.P..2...'
  can0  TX - -  76C   [8]  02 27 03 00 00 00 00 00   '.'......'
  can0  RX - -  7D6   [8]  03 7F 27 11 AA AA AA AA   '..'.....'
  can0  TX - -  76C   [8]  02 10 03 00 00 00 00 00   '........'
  can0  RX - -  7D6   [8]  06 50 03 00 32 01 F4 AA   '.P..2...'
  can0  TX - -  76C   [8]  02 27 03 00 00 00 00 00   '.'......'
  can0  RX - -  7D6   [8]  03 7F 27 11 AA AA AA AA   '..'.....'
  can0  TX - -  76C   [8]  02 10 03 00 00 00 00 00   '........'
  can0  RX - -  7D6   [8]  06 50 03 00 32 01 F4 AA   '.P..2...'
  can0  TX - -  76C   [8]  02 27 03 00 00 00 00 00   '.'......'
  can0  RX - -  7D6   [8]  03 7F 27 11 AA AA AA AA   '..'.....'
  can0  TX - -  76C   [8]  02 10 03 00 00 00 00 00   '........'
  can0  RX - -  7D6   [8]  06 50 03 00 32 01 F4 AA   '.P..2...'
  can0  TX - -  76C   [8]  02 27 03 00 00 00 00 00   '.'......'
  can0  RX - -  7D6   [8]  03 7F 27 11 AA AA AA AA   '..'.....'
  can0  TX - -  76C   [8]  02 10 03 00 00 00 00 00   '........'
  can0  RX - -  7D6   [8]  06 50 03 00 32 01 F4 AA   '.P..2...'
  can0  TX - -  76C   [8]  02 27 03 00 00 00 00 00   '.'......'
  can0  RX - -  7D6   [8]  03 7F 27 11 AA AA AA AA   '..'.....'
  can0  TX - -  76C   [8]  02 10 03 00 00 00 00 00   '........'
  can0  RX - -  7D6   [8]  06 50 03 00 32 01 F4 AA   '.P..2...'
  can0  TX - -  76C   [8]  02 27 03 00 00 00 00 00   '.'......'
  can0  RX - -  7D6   [8]  03 7F 27 11 AA AA AA AA   '..'.....'
  can0  TX - -  76C   [8]  02 10 03 00 00 00 00 00   '........'
  can0  RX - -  7D6   [8]  06 50 03 00 32 01 F4 AA   '.P..2...'
  can0  TX - -  76C   [8]  02 27 03 00 00 00 00 00   '.'......'
  can0  RX - -  7D6   [8]  03 7F 27 11 AA AA AA AA   '..'.....'
  can0  TX - -  7E0   [8]  02 10 03 00 00 00 00 00   '........'
  can0  RX - -  7E8   [8]  06 50 03 00 32 01 F4 AA   '.P..2...'
  can0  TX - -  7E0   [8]  02 10 03 00 00 00 00 00   '........'
  can0  RX - -  7E8   [8]  06 50 03 00 32 01 F4 AA   '.P..2...'
  can0  TX - -  7E0   [8]  02 27 03 00 00 00 00 00   '.'......'
  can0  RX - -  7E8   [8]  06 67 03 62 77 31 79 AA   '.g.bw1y.'
  can0  TX - -  7E0   [8]  02 10 03 00 00 00 00 00   '........'
  can0  RX - -  7E8   [8]  06 50 03 00 32 01 F4 AA   '.P..2...'
  can0  TX - -  7E0   [8]  02 27 03 00 00 00 00 00   '.'......'
  can0  RX - -  7E8   [8]  06 67 03 62 77 31 79 AA   '.g.bw1y.'
  can0  TX - -  7E0   [8]  02 10 03 00 00 00 00 00   '........'
  can0  RX - -  7E8   [8]  06 50 03 00 32 01 F4 AA   '.P..2...'
  can0  TX - -  7E0   [8]  02 27 03 00 00 00 00 00   '.'......'
  can0  RX - -  7E8   [8]  06 67 03 62 77 31 79 AA   '.g.bw1y.'
  can0  TX - -  7E0   [8]  02 10 03 00 00 00 00 00   '........'
  can0  RX - -  7E8   [8]  06 50 03 00 32 01 F4 AA   '.P..2...'
  can0  TX - -  7E0   [8]  02 27 03 00 00 00 00 00   '.'......'
  can0  RX - -  7E8   [8]  06 67 03 62 77 31 79 AA   '.g.bw1y.'
  can0  TX - -  7E0   [8]  02 10 03 00 00 00 00 00   '........'
  can0  RX - -  7E8   [8]  06 50 03 00 32 01 F4 AA   '.P..2...'
  can0  TX - -  7E0   [8]  02 27 03 00 00 00 00 00   '.'......'
  can0  RX - -  7E8   [8]  06 67 03 62 77 31 79 AA   '.g.bw1y.'
  can0  TX - -  7E0   [8]  02 10 03 00 00 00 00 00   '........'
  can0  RX - -  7E8   [8]  06 50 03 00 32 01 F4 AA   '.P..2...'
