---

def kwp2000_test_readall(bus):
    if kwp2000_init_diagnostic_session(bus, 0x7e0):
        for high in range(0xff):
            for low in range(0xff):
                answer = can_xchg(bus, 0x7e0, [5, 0x22, high, low, 0x1, 0x1, 0, 0])

candump  -a -d -e -x can0 | tee test
%s/  can0  TX.*\s*\n\n//g

---

  can0  TX - -  7E0   [8]  02 10 03 00 00 00 00 00   '........'
  can0  RX - -  7E8   [8]  06 50 03 00 32 01 F4 AA   '.P..2...'
  can0  TX - -  7E0   [8]  05 22 01 00 01 01 00 00   '."......'
  can0  RX - -  7E8   [8]  04 62 01 00 00 AA AA AA   '.b......'
  can0  TX - -  7E0   [8]  05 22 01 02 01 01 00 00   '."......'
  can0  RX - -  7E8   [8]  04 62 01 02 00 AA AA AA   '.b......'
  can0  TX - -  7E0   [8]  05 22 01 03 01 01 00 00   '."......'
  can0  RX - -  7E8   [8]  04 62 01 03 00 AA AA AA   '.b......'
  can0  TX - -  7E0   [8]  05 22 01 04 01 01 00 00   '."......'
  can0  RX - -  7E8   [8]  05 62 01 04 00 00 AA AA   '.b......'
  can0  TX - -  7E0   [8]  05 22 01 05 01 01 00 00   '."......'
  can0  RX - -  7E8   [8]  05 62 01 05 00 00 AA AA   '.b......'
  can0  TX - -  7E0   [8]  05 22 01 06 01 01 00 00   '."......'
  can0  RX - -  7E8   [8]  04 62 01 06 00 AA AA AA   '.b......'
  can0  TX - -  7E0   [8]  05 22 01 08 01 01 00 00   '."......'
  can0  RX - -  7E8   [8]  04 62 01 08 00 AA AA AA   '.b......'
  can0  TX - -  7E0   [8]  05 22 02 A7 01 01 00 00   '."......'
  can0  RX - -  7E8   [8]  10 45 62 02 A7 00 00 00   '.Eb.....'
  can0  TX - -  7E0   [8]  05 22 02 A8 01 01 00 00   '."......'
  can0  TX - -  7E0   [8]  05 22 02 E0 01 01 00 00   '."......'
  can0  RX - -  7E8   [8]  07 62 02 E0 0C AD 3A DF   '.b....:.'
  can0  TX - -  7E0   [8]  05 22 02 ED 01 01 00 00   '."......'
  can0  RX - -  7E8   [8]  10 0B 62 02 ED 04 00 01   '..b.....'
  can0  TX - -  7E0   [8]  05 22 02 EE 01 01 00 00   '."......'
  can0  TX - -  7E0   [8]  05 22 02 EF 01 01 00 00   '."......'
  can0  RX - -  7E8   [8]  10 09 62 02 EF 00 00 00   '..b.....'
  can0  TX - -  7E0   [8]  05 22 02 F0 01 01 00 00   '."......'
  can0  TX - -  7E0   [8]  05 22 03 10 01 01 00 00   '."......'
  can0  RX - -  7E8   [8]  04 62 03 10 80 AA AA AA   '.b......'
  can0  TX - -  7E0   [8]  05 22 04 05 01 01 00 00   '."......'
  can0  RX - -  7E8   [8]  04 62 04 05 00 AA AA AA   '.b......'
  can0  TX - -  7E0   [8]  05 22 04 07 01 01 00 00   '."......'
  can0  RX - -  7E8   [8]  10 09 62 04 07 00 00 00   '..b.....'
  can0  TX - -  7E0   [8]  05 22 04 08 01 01 00 00   '."......'
  can0  TX - -  7E0   [8]  05 22 04 0F 01 01 00 00   '."......'
  can0  RX - -  7E8   [8]  10 09 62 04 0F 00 00 00   '..b.....'
  can0  TX - -  7E0   [8]  05 22 04 10 01 01 00 00   '."......'
  can0  TX - -  7E0   [8]  05 22 04 FC 01 01 00 00   '."......'
  can0  RX - -  7E8   [8]  06 62 04 FC 00 00 00 AA   '.b......'
  can0  TX - -  7E0   [8]  05 22 04 FE 01 01 00 00   '."......'
  can0  RX - -  7E8   [8]  06 62 04 FE 00 00 00 AA   '.b......'
  can0  TX - -  7E0   [8]  05 22 06 00 01 01 00 00   '."......'
  can0  RX - -  7E8   [8]  10 0D 62 06 00 00 11 00   '..b.....'
  can0  TX - -  7E0   [8]  05 22 06 01 01 01 00 00   '."......'

