  can0  RX - -  180   [8]  00 00 00 00 00 00 2A 00   '......*.'
  can0  RX - -  174   [8]  00 00 00 AA 0A 00 00 00   '........'
  can0  RX - -  176   [7]  00 00 00 00 00 00 0A      '.......'
  can0  RX - -  1D5   [5]  00 00 00 02 D8            '.....'
  can0  RX - -  1D6   [8]  00 00 00 00 00 41 00 2B   '.....A.+'
  can0  RX - -  5EB   [8]  00 3F FF FF FF FF FF FF   '.?......'
  can0  RX - -  5F8   [8]  00 00 FF FC 1C F8 7C 00   '......|.'
  can0  RX - -  5F9   [8]  FF 1F E0 00 3A 7B 00 00   '....:{..'
  can0  RX - -  002   [5]  00 00 00 07 25            '....%'
  can0  RX - -  215   [6]  FF F0 FF 00 FF FF         '......'
  can0  RX - -  216   [2]  42 64                     'Bd'
  can0  RX - -  284   [8]  00 00 00 00 00 00 7F 05   '........'
  can0  RX - -  285   [8]  00 00 00 00 00 00 7F 06   '........'
  can0  RX - -  354   [8]  00 00 00 00 00 00 00 00   '........'
  can0  RX - -  625   [6]  02 60 FF 1D 20 00         '.`.. .'
  can0  RX - -  1C3   [8]  00 00 00 00 64 02 FF 29   '....d..)'
  can0  RX - -  2B0   [8]  00 0F FF 8C 1B 00 2E 00   '........'
  can0  RX - -  280   [8]  03 FF C0 00 00 00 FF C0   '........'
  can0  RX - -  2DE   [8]  00 00 00 00 00 00 08 34   '.......4'
  can0  RX - -  355   [8]  00 00 00 00 00 00 40 00   '......@.'
  can0  RX - -  559   [3]  48 00 20                  'H. '
  can0  RX - -  1CB   [7]  00 00 00 00 10 01 C3      '.......'
  can0  RX - -  1CC   [4]  00 00 05 9C               '....'
  can0  RX - -  300   [1]  00                        '.'
  can0  RX - -  358   [8]  00 88 80 00 00 00 00 00   '........'
  can0  RX - -  35D   [8]  80 03 00 00 00 00 00 00   '........'
  can0  RX - -  515   [5]  02 00 F9 CE 00            '.....'
  can0  RX - -  180   [8]  00 00 00 00 00 00 2B 00   '......+.'
  can0  RX - -  174   [8]  00 00 00 AA 0B 00 00 00   '........'
  can0  RX - -  176   [7]  00 00 00 00 00 00 0B      '.......'
  can0  RX - -  1D5   [5]  00 00 00 03 D9            '.....'
  can0  RX - -  1D6   [8]  00 00 00 00 00 41 00 3C   '.....A.<'
  can0  RX - -  239   [8]  00 FF 60 20 41 00 3F F0   '..` A.?.'
  can0  RX - -  260   [4]  C8 C8 7D 00               '..}.'
  can0  RX - -  002   [5]  00 00 00 07 16            '.....'
  can0  RX - -  245   [8]  7F E8 02 18 80 00 7F E0   '........'
  can0  RX - -  292   [8]  7E C8 00 80 60 00 00 00   '~...`...'
  can0  RX - -  1C3   [8]  00 00 00 00 64 03 FF 2A   '....d..*'
  can0  RX - -  2B0   [8]  00 0F FF 8C 1B 00 3E 00   '......>.'
  can0  RX - -  2B1   [8]  01 00 51 00 00 00 00 00   '..Q.....'
  can0  RX - -  2DE   [8]  00 00 00 00 00 00 08 34   '.......4'
  can0  RX - -  1CB   [7]  00 00 00 00 10 02 C9      '.......'
  can0  RX - -  1CC   [4]  00 00 05 AF               '....'
  can0  RX - -  2AA   [8]  00 08 83 E8 00 00 0D 2C   '.......,'
  can0  RX - -  56E   [4]  46 00 00 00               'F...'
  can0  RX - -  60D   [8]  16 06 00 00 00 00 00 00   '........'
  can0  RX - -  180   [8]  00 00 00 00 00 00 2C 00   '......,.'
  can0  RX - -  174   [8]  00 00 00 AA 0C 00 00 00   '........'
  can0  RX - -  176   [7]  00 00 00 00 00 00 0C      '.......'
  can0  RX - -  1D5   [5]  00 00 00 00 D6            '.....'
  can0  RX - -  1D6   [8]  00 00 00 00 00 41 00 09   '.....A..'
  can0  RX - -  390   [8]  04 00 00 00 00 80 21 D8   '......!.'
  can0  RX - -  002   [5]  00 00 00 07 07            '.....'
  can0  RX - -  215   [6]  FF F0 FF 00 FF FF         '......'
  can0  RX - -  216   [2]  42 64                     'Bd'
  can0  RX - -  284   [8]  00 00 00 00 00 00 80 06   '........'
  can0  RX - -  285   [8]  00 00 00 00 00 00 80 07   '........'
  can0  RX - -  1C3   [8]  00 00 00 00 64 00 FF 27   '....d..''
  can0  RX - -  2B0   [8]  00 0F FF 8C 1B 00 4E 00   '......N.'
  can0  RX - -  5C5   [8]  40 00 60 94 00 0C 00 00   '@.`.....'
  can0  RX - -  280   [8]  03 FF C0 00 00 00 FF C0   '........'
  can0  RX - -  1CB   [7]  00 00 00 00 10 03 4C      '......L'
  can0  RX - -  1CC   [4]  00 00 05 BE               '....'
  can0  RX - -  2DE   [8]  00 00 00 00 00 00 08 34   '.......4'
  can0  RX - -  300   [1]  00                        '.'
  can0  RX - -  4F2   [4]  00 00 00 00               '....'
  can0  RX - -  5E4   [3]  04 00 00                  '...'
  can0  RX - -  174   [8]  00 00 00 AA 0D 00 00 00   '........'
  can0  RX - -  176   [7]  00 00 00 00 00 00 0D      '.......'
  can0  RX - -  180   [8]  00 00 00 00 00 00 2D 00   '......-.'
  can0  RX - -  1D5   [5]  00 00 00 01 D7            '.....'
  can0  RX - -  1D6   [8]  00 00 00 00 00 41 00 1A   '.....A..'
  can0  RX - -  239   [8]  00 FF 60 20 42 00 3F F0   '..` B.?.'
  can0  RX - -  260   [4]  C8 C8 7D 00               '..}.'
  can0  RX - -  002   [5]  00 00 00 07 F8            '.....'
  can0  RX - -  245   [8]  7F E8 02 18 81 00 7F E1   '........'
  can0  RX - -  292   [8]  7E C8 00 80 50 00 00 01   '~...P...'
  can0  RX - -  6F6   [3]  75 00 00                  'u..'
  can0  RX - -  1C3   [8]  00 00 00 00 64 01 FF 28   '....d..('
  can0  RX - -  2B0   [8]  00 0F FF 8C 1B 00 5E 00   '......^.'
  can0  RX - -  2B1   [8]  01 00 51 00 00 00 00 00   '..Q.....'
  can0  RX - -  2DE   [8]  00 00 00 00 00 00 08 34   '.......4'
  can0  RX - -  1CB   [7]  00 00 00 00 10 00 46      '......F'
  can0  RX - -  1CC   [4]  00 00 05 C9               '....'
  can0  RX - -  2AA   [8]  00 08 83 E8 00 00 0E 2D   '.......-'
  can0  RX - -  180   [8]  00 00 00 00 00 00 2E 00   '........'
  can0  RX - -  174   [8]  00 00 00 AA 0E 00 00 00   '........'
  can0  RX - -  176   [7]  00 00 00 00 00 00 0E      '.......'
  can0  RX - -  1D5   [5]  00 00 00 02 D8            '.....'
  can0  RX - -  1D6   [8]  00 00 00 00 00 41 00 2B   '.....A.+'
  can0  RX - -  002   [5]  00 00 00 07 E9            '.....'
  can0  RX - -  215   [6]  FF F0 FF 00 FF FF         '......'
  can0  RX - -  216   [2]  42 64                     'Bd'
  can0  RX - -  284   [8]  00 00 00 00 00 00 81 07   '........'
  can0  RX - -  285   [8]  00 00 00 00 00 00 81 08   '........'
  can0  RX - -  354   [8]  00 00 00 00 00 08 00 00   '........'
  can0  RX - -  1C3   [8]  00 00 00 00 64 02 FF 29   '....d..)'
  can0  RX - -  2B0   [8]  00 0F FF 8C 1B 00 6E 00   '......n.'
  can0  RX - -  280   [8]  03 FF C0 00 00 00 FF C0   '........'
  can0  RX - -  2DE   [8]  00 00 00 00 00 00 08 34   '.......4'
  can0  RX - -  355   [8]  00 00 00 00 00 00 40 00   '......@.'
  can0  RX - -  1CB   [7]  00 00 00 00 10 01 C3      '.......'
  can0  RX - -  1CC   [4]  00 00 05 D8               '....'
  can0  RX - -  300   [1]  00                        '.'
  can0  RX - -  180   [8]  00 00 00 00 00 00 2F 00   '....../.'
  can0  RX - -  174   [8]  00 00 00 AA 0F 00 00 00   '........'
  can0  RX - -  176   [7]  00 00 00 00 00 00 0F      '.......'
  can0  RX - -  1D5   [5]  00 00 00 03 D9            '.....'
  can0  RX - -  1D6   [8]  00 00 00 00 00 41 00 3C   '.....A.<'
  can0  RX - -  239   [8]  00 FF 60 20 43 00 3F F0   '..` C.?.'
  can0  RX - -  260   [4]  C8 C8 7D 00               '..}.'
  can0  RX - -  421   [3]  08 00 40                  '..@'
  can0  RX - -  002   [5]  00 00 00 07 DA            '.....'
  can0  RX - -  245   [8]  7F E8 02 18 82 00 7F E2   '........'
  can0  RX - -  292   [8]  7E C8 00 80 60 00 00 02   '~...`...'
  can0  RX - -  4CB   [8]  20 20 00 00 00 00 00 00   '  ......'
  can0  RX - -  1C3   [8]  00 00 00 00 64 03 FF 2A   '....d..*'
  can0  RX - -  2B0   [8]  00 0F FF 8C 1B 00 7E 00   '......~.'
  can0  RX - -  2B1   [8]  01 00 51 00 00 00 00 00   '..Q.....'
  can0  RX - -  2DE   [8]  00 00 00 00 00 00 08 34   '.......4'
  can0  RX - -  1CB   [7]  00 00 00 00 10 02 C9      '.......'
  can0  RX - -  1CC   [4]  00 00 05 EB               '....'
  can0  RX - -  2AA   [8]  00 08 83 E8 00 00 0F 2E   '........'
  can0  RX - -  351   [8]  00 00 00 00 00 02 42 02   '......B.'
  can0  RX - -  180   [8]  00 00 00 00 00 00 20 00   '...... .'
  can0  RX - -  174   [8]  00 00 00 AA 00 00 00 00   '........'
  can0  RX - -  176   [7]  00 00 00 00 00 00 00      '.......'
  can0  RX - -  1D5   [5]  00 00 00 00 D6            '.....'
  can0  RX - -  1D6   [8]  00 00 00 00 00 41 00 09   '.....A..'
  can0  RX - -  002   [5]  00 00 00 07 CB            '.....'
  can0  RX - -  55B   [8]  F1 C0 AA 00 EB 80 11 B7   '........'
  can0  RX - -  5BC   [8]  5D C0 F0 64 B6 10 1F FF   ']..d....'
  can0  RX - -  215   [6]  FF F0 FF 00 FF FF         '......'
  can0  RX - -  216   [2]  42 64                     'Bd'
  can0  RX - -  284   [8]  00 00 00 00 00 00 82 08   '........'
  can0  RX - -  285   [8]  00 00 00 00 00 00 82 09   '........'
  can0  RX - -  1C3   [8]  00 00 00 00 64 00 FF 27   '....d..''
  can0  RX - -  2B0   [8]  00 0F FF 8C 1B 00 8E 00   '........'
  can0  RX - -  280   [8]  03 FF C0 00 00 00 FF C0   '........'
  can0  RX - -  2DE   [8]  00 00 00 00 00 00 08 34   '.......4'
  can0  RX - -  1CB   [7]  00 00 00 00 10 03 4C      '......L'
  can0  RX - -  1CC   [4]  00 00 05 FA               '....'
  can0  RX - -  300   [1]  00                        '.'
  can0  RX - -  180   [8]  00 00 00 00 00 00 21 00   '......!.'
  can0  RX - -  02A   [6]  00 00 00 00 00 0C         '......'
  can0  RX - -  174   [8]  00 00 00 AA 01 00 00 00   '........'
  can0  RX - -  176   [7]  00 00 00 00 00 00 01      '.......'
  can0  RX - -  1D5   [5]  00 00 00 01 D7            '.....'
  can0  RX - -  1D6   [8]  00 00 00 00 00 41 00 1A   '.....A..'
  can0  RX - -  239   [8]  00 FF 60 20 40 00 3F F0   '..` @.?.'
  can0  RX - -  260   [4]  C8 C8 7D 00               '..}.'
  can0  RX - -  002   [5]  00 00 00 07 BC            '.....'
  can0  RX - -  245   [8]  7F E8 02 18 83 00 7F E3   '........'
  can0  RX - -  292   [8]  7E C8 00 80 50 00 00 03   '~...P...'
  can0  RX - -  1C3   [8]  00 00 00 00 64 01 FF 28   '....d..('
  can0  RX - -  2B0   [8]  00 0F FF 8C 1B 00 9E 00   '........'
  can0  RX - -  2B1   [8]  01 00 51 00 00 00 00 00   '..Q.....'
  can0  RX - -  2DE   [8]  00 00 00 00 00 00 08 34   '.......4'
  can0  RX - -  1CB   [7]  00 00 00 00 10 00 46      '......F'
  can0  RX - -  1CC   [4]  00 00 05 05               '....'
  can0  RX - -  2AA   [8]  00 08 83 E8 00 00 00 1F   '........'
  can0  RX - -  180   [8]  00 00 00 00 00 00 22 00   '......".'
  can0  RX - -  174   [8]  00 00 00 AA 02 00 00 00   '........'
  can0  RX - -  176   [7]  00 00 00 00 00 00 02      '.......'
  can0  RX - -  1D5   [5]  00 00 00 02 D8            '.....'
  can0  RX - -  1D6   [8]  00 00 00 00 00 41 00 2B   '.....A.+'
  can0  RX - -  50A   [8]  04 30 00 19 00 21 04 00   '.0...!..'
  can0  RX - -  50D   [8]  63 00 00 00 00 80 00 00   'c.......'
  can0  RX - -  510   [8]  08 00 30 00 0E 00 00 7E   '..0....~'
  can0  RX - -  002   [5]  00 00 00 07 AD            '.....'
  can0  RX - -  551   [8]  00 00 00 80 FF 00 00 00   '........'
  can0  RX - -  5A9   [8]  86 41 A0 13 44 A0 00 00   '.A..D...'
  can0  RX - -  5B3   [8]  64 B6 FF EB C1 56 F0 8A   'd....V..'
  can0  RX - -  215   [6]  FF F0 FF 00 FF FF         '......'
  can0  RX - -  216   [2]  42 64                     'Bd'
  can0  RX - -  284   [8]  00 00 00 00 00 00 83 09   '........'
  can0  RX - -  285   [8]  00 00 00 00 00 00 83 0A   '........'
  can0  RX - -  354   [8]  00 00 00 00 00 10 00 00   '........'
  can0  RX - -  1C3   [8]  00 00 00 00 64 02 FF 29   '....d..)'
  can0  RX - -  2B0   [8]  00 0F FF 8C 1B 00 AE 00   '........'
  can0  RX - -  280   [8]  03 FF C0 00 00 00 FF C0   '........'
  can0  RX - -  2DE   [8]  00 00 00 00 00 00 08 34   '.......4'
  can0  RX - -  355   [8]  00 00 00 00 00 00 40 00   '......@.'
  can0  RX - -  1CB   [7]  00 00 00 00 10 01 C3      '.......'
  can0  RX - -  1CC   [4]  00 00 05 14               '....'
  can0  RX - -  54A   [8]  A0 80 70 06 32 00 00 3E   '..p.2..>'
  can0  RX - -  54B   [8]  10 46 98 12 0C 00 00 00   '.F......'
  can0  RX - -  300   [1]  00                        '.'
  can0  RX - -  180   [8]  00 00 00 00 00 00 23 00   '......#.'
  can0  RX - -  174   [8]  00 00 00 AA 03 00 00 00   '........'
  can0  RX - -  176   [7]  00 00 00 00 00 00 03      '.......'
  can0  RX - -  1D5   [5]  00 00 00 03 D9            '.....'
  can0  RX - -  1D6   [8]  00 00 00 00 00 41 00 3C   '.....A.<'
  can0  RX - -  239   [8]  00 FF 60 20 41 00 3F F0   '..` A.?.'
  can0  RX - -  260   [4]  C8 C8 7D 00               '..}.'
  can0  RX - -  002   [5]  00 00 00 07 9E            '.....'
  can0  RX - -  245   [8]  7F E8 02 18 84 00 7F E0   '........'
  can0  RX - -  292   [8]  7E C8 00 80 70 00 00 00   '~...p...'
  can0  RX - -  1C3   [8]  00 00 00 00 64 03 FF 2A   '....d..*'
  can0  RX - -  2B0   [8]  00 0F FF 8C 1B 00 BE 00   '........'
  can0  RX - -  2B1   [8]  01 00 51 00 00 00 00 00   '..Q.....'
  can0  RX - -  2DE   [8]  00 00 00 00 00 00 08 34   '.......4'
  can0  RX - -  1CB   [7]  00 00 00 00 10 02 C9      '.......'
  can0  RX - -  1CC   [4]  00 00 05 27               '...''
  can0  RX - -  2AA   [8]  00 08 83 E8 00 00 01 20   '....... '
  can0  RX - -  180   [8]  00 00 00 00 00 00 24 00   '......$.'
  can0  RX - -  174   [8]  00 00 00 AA 04 00 00 00   '........'
  can0  RX - -  176   [7]  00 00 00 00 00 00 04      '.......'
  can0  RX - -  1D5   [5]  00 00 00 00 D6            '.....'
  can0  RX - -  1D6   [8]  00 00 00 00 00 41 00 09   '.....A..'
  can0  RX - -  002   [5]  00 00 00 07 8F            '.....'
  can0  RX - -  215   [6]  FF F0 FF 00 FF FF         '......'
  can0  RX - -  216   [2]  42 64                     'Bd'
  can0  RX - -  284   [8]  00 00 00 00 00 00 84 0A   '........'
  can0  RX - -  285   [8]  00 00 00 00 00 00 84 0B   '........'
  can0  RX - -  625   [6]  02 60 FF 1D 20 00         '.`.. .'
  can0  RX - -  1C3   [8]  00 00 00 00 64 00 FF 27   '....d..''
  can0  RX - -  2B0   [8]  00 0F FF 8C 1B 00 CE 00   '........'
  can0  RX - -  280   [8]  03 FF C0 00 00 00 FF C0   '........'
  can0  RX - -  2DE   [8]  00 00 00 00 00 00 08 34   '.......4'
  can0  RX - -  559   [3]  48 00 20                  'H. '
  can0  RX - -  1CB   [7]  00 00 00 00 10 03 4C      '......L'
  can0  RX - -  1CC   [4]  00 00 05 36               '...6'
  can0  RX - -  300   [1]  00                        '.'
  can0  RX - -  358   [8]  00 88 80 00 00 00 00 00   '........'
  can0  RX - -  35D   [8]  80 03 00 00 00 00 00 00   '........'
  can0  RX - -  515   [5]  02 00 1C B2 00            '.....'
  can0  RX - -  180   [8]  00 00 00 00 00 00 25 00   '......%.'
  can0  RX - -  174   [8]  00 00 00 AA 05 00 00 00   '........'
  can0  RX - -  176   [7]  00 00 00 00 00 00 05      '.......'
  can0  RX - -  1D5   [5]  00 00 00 01 D7            '.....'
  can0  RX - -  1D6   [8]  00 00 00 00 00 41 00 1A   '.....A..'
  can0  RX - -  239   [8]  00 FF 60 20 42 00 3F F0   '..` B.?.'
  can0  RX - -  260   [4]  C8 C8 7D 00               '..}.'
  can0  RX - -  421   [3]  08 00 40                  '..@'
  can0  RX - -  002   [5]  00 00 00 07 70            '....p'
  can0  RX - -  245   [8]  7F E8 02 18 85 00 7F E1   '........'
  can0  RX - -  292   [8]  7E C8 00 80 50 00 00 01   '~...P...'
  can0  RX - -  1C3   [8]  00 00 00 00 64 01 FF 28   '....d..('
  can0  RX - -  2B0   [8]  00 0F FF 8C 1B 00 DE 00   '........'
  can0  RX - -  2B1   [8]  01 00 51 00 00 00 00 00   '..Q.....'
  can0  RX - -  2DE   [8]  00 00 00 00 00 00 08 34   '.......4'
  can0  RX - -  1CB   [7]  00 00 00 00 10 00 46      '......F'
  can0  RX - -  1CC   [4]  00 00 05 41               '...A'
  can0  RX - -  2AA   [8]  00 08 83 E8 00 00 02 21   '.......!'
  can0  RX - -  56E   [4]  46 00 00 00               'F...'
  can0  RX - -  60D   [8]  16 06 00 00 00 00 00 00   '........'
  can0  RX - -  180   [8]  00 00 00 00 00 00 26 00   '......&.'
  can0  RX - -  174   [8]  00 00 00 AA 06 00 00 00   '........'
  can0  RX - -  176   [7]  00 00 00 00 00 00 06      '.......'
  can0  RX - -  1D5   [5]  00 00 00 02 D8            '.....'
  can0  RX - -  1D6   [8]  00 00 00 00 00 41 00 2B   '.....A.+'
  can0  RX - -  390   [8]  04 00 00 00 00 80 21 E9   '......!.'
  can0  RX - -  002   [5]  00 00 00 07 61            '....a'
  can0  RX - -  215   [6]  FF F0 FF 00 FF FF         '......'
  can0  RX - -  284   [8]  00 00 00 00 00 00 85 0B   '........'
  can0  RX - -  216   [2]  42 64                     'Bd'
  can0  RX - -  285   [8]  00 00 00 00 00 00 85 0C   '........'
  can0  RX - -  354   [8]  00 00 00 00 00 18 00 00   '........'
  can0  RX - -  1C3   [8]  00 00 00 00 64 02 FF 29   '....d..)'
  can0  RX - -  2B0   [8]  00 0F FF 8C 1B 00 EE 00   '........'
  can0  RX - -  5C5   [8]  40 00 60 94 00 0C 00 00   '@.`.....'
  can0  RX - -  280   [8]  03 FF C0 00 00 00 FF C0   '........'
  can0  RX - -  1CB   [7]  00 00 00 00 10 01 C3      '.......'
  can0  RX - -  1CC   [4]  00 00 05 50               '...P'
  can0  RX - -  2DE   [8]  00 00 00 00 00 00 08 34   '.......4'
  can0  RX - -  300   [1]  00                        '.'
  can0  RX - -  355   [8]  00 00 00 00 00 00 40 00   '......@.'
  can0  RX - -  4F2   [4]  00 00 00 00               '....'
  can0  RX - -  509   [8]  FF 7B ED E9 00 55 50 FF   '.{...UP.'
  can0  RX - -  5E3   [5]  86 13 44 A1 00            '..D..'
  can0  RX - -  5E4   [3]  04 00 00                  '...'
  can0  RX - -  174   [8]  00 00 00 AA 07 00 00 00   '........'
  can0  RX - -  176   [7]  00 00 00 00 00 00 07      '.......'
  can0  RX - -  180   [8]  00 00 00 00 00 00 27 00   '......'.'
  can0  RX - -  1D5   [5]  00 00 00 03 D9            '.....'
  can0  RX - -  1D6   [8]  00 00 00 00 00 41 00 3C   '.....A.<'
  can0  RX - -  239   [8]  00 FF 60 20 43 00 3F F0   '..` C.?.'
  can0  RX - -  260   [4]  C8 C8 7D 00               '..}.'
  can0  RX - -  002   [5]  00 00 00 07 52            '....R'
  can0  RX - -  245   [8]  7F E8 02 18 86 00 7F E2   '........'
  can0  RX - -  292   [8]  7E C8 00 80 50 00 00 02   '~...P...'
  can0  RX - -  6F6   [3]  75 00 00                  'u..'
  can0  RX - -  1C3   [8]  00 00 00 00 64 03 FF 2A   '....d..*'
  can0  RX - -  2B0   [8]  00 0F FF 8C 1B 00 FE 00   '........'
  can0  RX - -  2B1   [8]  01 00 51 00 00 00 00 00   '..Q.....'
  can0  RX - -  2DE   [8]  00 00 00 00 00 00 08 34   '.......4'
  can0  RX - -  1CB   [7]  00 00 00 00 10 02 C9      '.......'
  can0  RX - -  1CC   [4]  00 00 05 63               '...c'
  can0  RX - -  2AA   [8]  00 08 83 E8 00 00 03 22   '......."'
  can0  RX - -  180   [8]  00 00 00 00 00 00 28 00   '......(.'
  can0  RX - -  174   [8]  00 00 00 AA 08 00 00 00   '........'
  can0  RX - -  176   [7]  00 00 00 00 00 00 08      '.......'
  can0  RX - -  1D5   [5]  00 00 00 00 D6            '.....'
  can0  RX - -  1D6   [8]  00 00 00 00 00 41 00 09   '.....A..'
  can0  RX - -  002   [5]  00 00 00 07 43            '....C'
  can0  RX - -  215   [6]  FF F0 FF 00 FF FF         '......'
  can0  RX - -  284   [8]  00 00 00 00 00 00 86 0C   '........'
  can0  RX - -  216   [2]  42 64                     'Bd'
  can0  RX - -  285   [8]  00 00 00 00 00 00 86 0D   '........'
  can0  RX - -  1C3   [8]  00 00 00 00 64 00 FF 27   '....d..''
  can0  RX - -  2B0   [8]  00 0F FF 8C 1B 00 0E 00   '........'
  can0  RX - -  280   [8]  03 FF C0 00 00 00 FF C0   '........'
  can0  RX - -  2DE   [8]  00 00 00 00 00 00 08 34   '.......4'
  can0  RX - -  1CB   [7]  00 00 00 00 10 03 4C      '......L'
  can0  RX - -  1CC   [4]  00 00 05 72               '...r'
  can0  RX - -  300   [1]  00                        '.'
  can0  RX - -  180   [8]  00 00 00 00 00 00 29 00   '......).'
  can0  RX - -  174   [8]  00 00 00 AA 09 00 00 00   '........'
  can0  RX - -  176   [7]  00 00 00 00 00 00 09      '.......'
  can0  RX - -  1D5   [5]  00 00 00 01 D7            '.....'
  can0  RX - -  1D6   [8]  00 00 00 00 00 41 00 1A   '.....A..'
  can0  RX - -  239   [8]  00 FF 60 20 40 00 3F F0   '..` @.?.'
  can0  RX - -  260   [4]  C8 C8 7D 00               '..}.'
  can0  RX - -  002   [5]  00 00 00 07 34            '....4'
  can0  RX - -  245   [8]  7F E8 02 18 87 00 7F E3   '........'
  can0  RX - -  292   [8]  7E C8 00 80 50 00 00 03   '~...P...'
  can0  RX - -  4CB   [8]  20 20 00 00 00 00 00 00   '  ......'
  can0  RX - -  1C3   [8]  00 00 00 00 64 01 FF 28   '....d..('
  can0  RX - -  2B0   [8]  00 0F FF 8C 1B 00 1E 00   '........'
  can0  RX - -  2B1   [8]  01 00 51 00 00 00 00 00   '..Q.....'
  can0  RX - -  2DE   [8]  00 00 00 00 00 00 08 34   '.......4'
  can0  RX - -  1CB   [7]  00 00 00 00 10 00 46      '......F'
  can0  RX - -  1CC   [4]  00 00 05 8D               '....'
  can0  RX - -  2AA   [8]  00 08 83 E8 00 00 04 23   '.......#'
  can0  RX - -  351   [8]  00 00 00 00 00 02 42 02   '......B.'
  can0  RX - -  180   [8]  00 00 00 00 00 00 2A 00   '......*.'
  can0  RX - -  174   [8]  00 00 00 AA 0A 00 00 00   '........'
  can0  RX - -  176   [7]  00 00 00 00 00 00 0A      '.......'
  can0  RX - -  1D5   [5]  00 00 00 02 D8            '.....'
  can0  RX - -  1D6   [8]  00 00 00 00 00 41 00 2B   '.....A.+'
  can0  RX - -  002   [5]  00 00 00 07 25            '....%'
  can0  RX - -  55B   [8]  F1 C0 AA 00 EB 80 12 BD   '........'
  can0  RX - -  5BC   [8]  55 80 F0 64 B6 00 A0 28   'U..d...('
  can0  RX - -  215   [6]  FF F0 FF 00 FF FF         '......'
  can0  RX - -  284   [8]  00 00 00 00 00 00 87 0D   '........'
  can0  RX - -  216   [2]  42 64                     'Bd'
  can0  RX - -  285   [8]  00 00 00 00 00 00 87 0E   '........'
  can0  RX - -  354   [8]  00 00 00 00 00 00 00 00   '........'
  can0  RX - -  1C3   [8]  00 00 00 00 64 02 FF 29   '....d..)'
  can0  RX - -  2B0   [8]  00 0F FF 8C 1B 00 2E 00   '........'
  can0  RX - -  280   [8]  03 FF C0 00 00 00 FF C0   '........'
  can0  RX - -  2DE   [8]  00 00 00 00 00 00 08 34   '.......4'
  can0  RX - -  355   [8]  00 00 00 00 00 00 40 00   '......@.'
  can0  RX - -  1CB   [7]  00 00 00 00 10 01 C3      '.......'
  can0  RX - -  1CC   [4]  00 00 05 9C               '....'
  can0  RX - -  300   [1]  00                        '.'
  can0  RX - -  180   [8]  00 00 00 00 00 00 2B 00   '......+.'
  can0  RX - -  02A   [6]  00 00 00 00 00 00         '......'
  can0  RX - -  174   [8]  00 00 00 AA 0B 00 00 00   '........'
  can0  RX - -  176   [7]  00 00 00 00 00 00 0B      '.......'
  can0  RX - -  1D5   [5]  00 00 00 03 D9            '.....'
  can0  RX - -  1D6   [8]  00 00 00 00 00 41 00 3C   '.....A.<'
  can0  RX - -  239   [8]  00 FF 60 20 41 00 3F F0   '..` A.?.'
  can0  RX - -  260   [4]  C8 C8 7D 00               '..}.'
  can0  RX - -  002   [5]  00 00 00 07 16            '.....'
  can0  RX - -  421   [3]  08 00 40                  '..@'
  can0  RX - -  245   [8]  7F E8 02 18 88 00 7F E0   '........'
  can0  RX - -  292   [8]  7E C8 00 80 60 00 00 00   '~...`...'
  can0  RX - -  1C3   [8]  00 00 00 00 64 03 FF 2A   '....d..*'
  can0  RX - -  2B0   [8]  00 0F FF 8C 1B 00 3E 00   '......>.'
  can0  RX - -  2B1   [8]  01 00 51 00 00 00 00 00   '..Q.....'
  can0  RX - -  2DE   [8]  00 00 00 00 00 00 08 34   '.......4'
  can0  RX - -  1CB   [7]  00 00 00 00 10 02 C9      '.......'
  can0  RX - -  1CC   [4]  00 00 05 AF               '....'
  can0  RX - -  2AA   [8]  00 08 83 E8 00 00 05 24   '.......$'
  can0  RX - -  180   [8]  00 00 00 00 00 00 2C 00   '......,.'
  can0  RX - -  174   [8]  00 00 00 AA 0C 00 00 00   '........'
  can0  RX - -  176   [7]  00 00 00 00 00 00 0C      '.......'
  can0  RX - -  1D5   [5]  00 00 00 00 D6            '.....'
  can0  RX - -  1D6   [8]  00 00 00 00 00 41 00 09   '.....A..'
  can0  RX - -  50A   [8]  04 50 00 19 00 21 04 00   '.P...!..'
  can0  RX - -  50D   [8]  63 00 00 00 00 80 00 00   'c.......'
  can0  RX - -  510   [8]  08 00 30 00 0E 00 00 7E   '..0....~'
  can0  RX - -  002   [5]  00 00 00 07 07            '.....'
  can0  RX - -  551   [8]  00 00 00 80 FF 00 00 00   '........'
  can0  RX - -  5A9   [8]  86 41 A0 13 44 A0 00 00   '.A..D...'
  can0  RX - -  5B3   [8]  64 B6 FF EF C1 56 F0 8A   'd....V..'
  can0  RX - -  215   [6]  FF F0 FF 00 FF FF         '......'
  can0  RX - -  284   [8]  00 00 00 00 00 00 88 0E   '........'
  can0  RX - -  216   [2]  42 64                     'Bd'
  can0  RX - -  285   [8]  00 00 00 00 00 00 88 0F   '........'
  can0  RX - -  1C3   [8]  00 00 00 00 64 00 FF 27   '....d..''
  can0  RX - -  2B0   [8]  00 0F FF 8C 1B 00 4E 00   '......N.'
  can0  RX - -  280   [8]  03 FF C0 00 00 00 FF C0   '........'
  can0  RX - -  2DE   [8]  00 00 00 00 00 00 08 34   '.......4'
  can0  RX - -  1CB   [7]  00 00 00 00 10 03 4C      '......L'
  can0  RX - -  1CC   [4]  00 00 05 BE               '....'
  can0  RX - -  54A   [8]  12 80 70 06 32 00 00 3E   '..p.2..>'
  can0  RX - -  54B   [8]  10 46 98 12 0C 00 00 00   '.F......'
  can0  RX - -  300   [1]  00                        '.'
  can0  RX - -  180   [8]  00 00 00 00 00 00 2D 00   '......-.'
  can0  RX - -  174   [8]  00 00 00 AA 0D 00 00 00   '........'
  can0  RX - -  176   [7]  00 00 00 00 00 00 0D      '.......'
  can0  RX - -  1D5   [5]  00 00 00 01 D7            '.....'
  can0  RX - -  1D6   [8]  00 00 00 00 00 41 00 1A   '.....A..'
  can0  RX - -  239   [8]  00 FF 60 20 42 00 3F F0   '..` B.?.'
  can0  RX - -  260   [4]  C8 C8 7D 00               '..}.'
  can0  RX - -  002   [5]  00 00 00 07 F8            '.....'
  can0  RX - -  245   [8]  7F E8 02 18 89 00 7F E1   '........'
  can0  RX - -  292   [8]  7E C8 00 80 60 00 00 01   '~...`...'
  can0  RX - -  1C3   [8]  00 00 00 00 64 01 FF 28   '....d..('
  can0  RX - -  2B0   [8]  00 0F FF 8C 1B 00 5E 00   '......^.'
  can0  RX - -  2B1   [8]  01 00 51 00 00 00 00 00   '..Q.....'
  can0  RX - -  2DE   [8]  00 00 00 00 00 00 08 34   '.......4'
  can0  RX - -  1CB   [7]  00 00 00 00 10 00 46      '......F'
  can0  RX - -  1CC   [4]  00 00 05 C9               '....'
  can0  RX - -  2AA   [8]  00 08 83 E8 00 00 06 25   '.......%'
  can0  RX - -  180   [8]  00 00 00 00 00 00 2E 00   '........'
  can0  RX - -  174   [8]  00 00 00 AA 0E 00 00 00   '........'
  can0  RX - -  176   [7]  00 00 00 00 00 00 0E      '.......'
  can0  RX - -  1D5   [5]  00 00 00 02 D8            '.....'
  can0  RX - -  1D6   [8]  00 00 00 00 00 41 00 2B   '.....A.+'
  can0  RX - -  002   [5]  00 00 00 07 E9            '.....'
  can0  RX - -  215   [6]  FF F0 FF 00 FF FF         '......'
  can0  RX - -  284   [8]  00 00 00 00 00 00 89 0F   '........'
  can0  RX - -  216   [2]  42 64                     'Bd'
  can0  RX - -  285   [8]  00 00 00 00 00 00 89 10   '........'
  can0  RX - -  354   [8]  00 00 00 00 00 08 00 00   '........'
  can0  RX - -  625   [6]  02 60 FF 1D 20 00         '.`.. .'
  can0  RX - -  1C3   [8]  00 00 00 00 64 02 FF 29   '....d..)'
  can0  RX - -  2B0   [8]  00 0F FF 8C 1B 00 6E 00   '......n.'
  can0  RX - -  280   [8]  03 FF C0 00 00 00 FF C0   '........'
  can0  RX - -  2DE   [8]  00 00 00 00 00 00 08 34   '.......4'
  can0  RX - -  355   [8]  00 00 00 00 00 00 40 00   '......@.'
  can0  RX - -  559   [3]  48 00 20                  'H. '
  can0  RX - -  1CB   [7]  00 00 00 00 10 01 C3      '.......'
  can0  RX - -  1CC   [4]  00 00 05 D8               '....'
  can0  RX - -  300   [1]  00                        '.'
  can0  RX - -  358   [8]  00 88 80 00 00 00 00 00   '........'
  can0  RX - -  35D   [8]  80 03 00 00 00 00 00 00   '........'
  can0  RX - -  515   [5]  02 00 27 F9 00            '..'..'
  can0  RX - -  180   [8]  00 00 00 00 00 00 2F 00   '....../.'
  can0  RX - -  174   [8]  00 00 00 AA 0F 00 00 00   '........'
  can0  RX - -  176   [7]  00 00 00 00 00 00 0F      '.......'
  can0  RX - -  1D5   [5]  00 00 00 03 D9            '.....'
  can0  RX - -  1D6   [8]  00 00 00 00 00 41 00 3C   '.....A.<'
  can0  RX - -  239   [8]  00 FF 60 20 43 00 3F F0   '..` C.?.'
  can0  RX - -  260   [4]  C8 C8 7D 00               '..}.'
  can0  RX - -  002   [5]  00 00 00 07 DA            '.....'
  can0  RX - -  245   [8]  7F E8 02 18 8A 00 7F E2   '........'
  can0  RX - -  292   [8]  7E C8 00 80 70 00 00 02   '~...p...'
  can0  RX - -  1C3   [8]  00 00 00 00 64 03 FF 2A   '....d..*'
  can0  RX - -  2B0   [8]  00 0F FF 8C 1B 00 7E 00   '......~.'
  can0  RX - -  2B1   [8]  01 00 51 00 00 00 00 00   '..Q.....'
  can0  RX - -  2DE   [8]  00 00 00 00 00 00 08 34   '.......4'
  can0  RX - -  1CB   [7]  00 00 00 00 10 02 C9      '.......'
  can0  RX - -  1CC   [4]  00 00 05 EB               '....'
  can0  RX - -  2AA   [8]  00 08 83 E8 00 00 07 26   '.......&'
  can0  RX - -  56E   [4]  46 00 00 00               'F...'
  can0  RX - -  60D   [8]  16 06 00 00 00 00 00 00   '........'
  can0  RX - -  180   [8]  00 00 00 00 00 00 20 00   '...... .'
  can0  RX - -  174   [8]  00 00 00 AA 00 00 00 00   '........'
  can0  RX - -  176   [7]  00 00 00 00 00 00 00      '.......'
  can0  RX - -  1D5   [5]  00 00 00 00 D6            '.....'
  can0  RX - -  1D6   [8]  00 00 00 00 00 41 00 09   '.....A..'
  can0  RX - -  390   [8]  04 00 00 00 00 80 21 FA   '......!.'
  can0  RX - -  002   [5]  00 00 00 07 CB            '.....'
  can0  RX - -  215   [6]  FF F0 FF 00 FF FF         '......'
  can0  RX - -  284   [8]  00 00 00 00 00 00 8A 10   '........'
  can0  RX - -  216   [2]  42 64                     'Bd'
  can0  RX - -  285   [8]  00 00 00 00 00 00 8A 11   '........'
  can0  RX - -  1C3   [8]  00 00 00 00 64 00 FF 27   '....d..''
  can0  RX - -  2B0   [8]  00 0F FF 8C 1B 00 8E 00   '........'
  can0  RX - -  5C5   [8]  40 00 60 94 00 0C 00 00   '@.`.....'
  can0  RX - -  280   [8]  03 FF C0 00 00 00 FF C0   '........'
  can0  RX - -  1CB   [7]  00 00 00 00 10 03 4C      '......L'
  can0  RX - -  1CC   [4]  00 00 05 FA               '....'
  can0  RX - -  2DE   [8]  00 00 00 00 00 00 08 34   '.......4'
  can0  RX - -  4F2   [4]  00 00 00 00               '....'
  can0  RX - -  300   [1]  00                        '.'
  can0  RX - -  5E4   [3]  04 00 00                  '...'
  can0  RX - -  174   [8]  00 00 00 AA 01 00 00 00   '........'
  can0  RX - -  176   [7]  00 00 00 00 00 00 01      '.......'
  can0  RX - -  180   [8]  00 00 00 00 00 00 21 00   '......!.'
  can0  RX - -  1D5   [5]  00 00 00 01 D7            '.....'
  can0  RX - -  1D6   [8]  00 00 00 00 00 41 00 1A   '.....A..'
  can0  RX - -  239   [8]  00 FF 60 20 40 00 3F F0   '..` @.?.'
  can0  RX - -  260   [4]  C8 C8 7D 00               '..}.'
  can0  RX - -  421   [3]  08 00 40                  '..@'
  can0  RX - -  002   [5]  00 00 00 07 BC            '.....'
  can0  RX - -  245   [8]  7F E8 02 18 8B 00 7F E3   '........'
  can0  RX - -  292   [8]  7E C8 00 80 50 00 00 03   '~...P...'
  can0  RX - -  6F6   [3]  75 00 00                  'u..'
  can0  RX - -  1C3   [8]  00 00 00 00 64 01 FF 28   '....d..('
  can0  RX - -  2B0   [8]  00 0F FF 8C 1B 00 9E 00   '........'
  can0  RX - -  2B1   [8]  01 00 51 00 00 00 00 00   '..Q.....'
  can0  RX - -  2DE   [8]  00 00 00 00 00 00 08 34   '.......4'
  can0  RX - -  1CB   [7]  00 00 00 00 10 00 46      '......F'
  can0  RX - -  1CC   [4]  00 00 05 05               '....'
  can0  RX - -  2AA   [8]  00 08 83 E8 00 00 08 27   '.......''
  can0  RX - -  180   [8]  00 00 00 00 00 00 22 00   '......".'
  can0  RX - -  174   [8]  00 00 00 AA 02 00 00 00   '........'
  can0  RX - -  176   [7]  00 00 00 00 00 00 02      '.......'
  can0  RX - -  1D5   [5]  00 00 00 02 D8            '.....'
  can0  RX - -  1D6   [8]  00 00 00 00 00 41 00 2B   '.....A.+'
  can0  RX - -  002   [5]  00 00 00 07 AD            '.....'
  can0  RX - -  215   [6]  FF F0 FF 00 FF FF         '......'
  can0  RX - -  284   [8]  00 00 00 00 00 00 8B 11   '........'
  can0  RX - -  216   [2]  42 64                     'Bd'
  can0  RX - -  285   [8]  00 00 00 00 00 00 8B 12   '........'
  can0  RX - -  354   [8]  00 00 00 00 00 10 00 00   '........'
  can0  RX - -  1C3   [8]  00 00 00 00 64 02 FF 29   '....d..)'
  can0  RX - -  2B0   [8]  00 0F FF 8C 1B 00 AE 00   '........'
  can0  RX - -  280   [8]  03 FF C0 00 00 00 FF C0   '........'
  can0  RX - -  2DE   [8]  00 00 00 00 00 00 08 34   '.......4'
  can0  RX - -  355   [8]  00 00 00 00 00 00 40 00   '......@.'
  can0  RX - -  1CB   [7]  00 00 00 00 10 01 C3      '.......'
  can0  RX - -  1CC   [4]  00 00 05 14               '....'
  can0  RX - -  300   [1]  00                        '.'
  can0  RX - -  180   [8]  00 00 00 00 00 00 23 00   '......#.'
  can0  RX - -  174   [8]  00 00 00 AA 03 00 00 00   '........'
  can0  RX - -  176   [7]  00 00 00 00 00 00 03      '.......'
  can0  RX - -  1D5   [5]  00 00 00 03 D9            '.....'
  can0  RX - -  1D6   [8]  00 00 00 00 00 41 00 3C   '.....A.<'
  can0  RX - -  239   [8]  00 FF 60 20 41 00 3F F0   '..` A.?.'
  can0  RX - -  260   [4]  C8 C8 7D 00               '..}.'
  can0  RX - -  002   [5]  00 00 00 07 9E            '.....'
  can0  RX - -  245   [8]  7F E8 02 18 8C 00 7F E0   '........'
  can0  RX - -  292   [8]  7E C8 00 80 50 00 00 00   '~...P...'
  can0  RX - -  4CB   [8]  20 20 00 00 00 00 00 00   '  ......'
  can0  RX - -  1C3   [8]  00 00 00 00 64 03 FF 2A   '....d..*'
  can0  RX - -  2B0   [8]  00 0F FF 8C 1B 00 BE 00   '........'
  can0  RX - -  2B1   [8]  01 00 51 00 00 00 00 00   '..Q.....'
  can0  RX - -  2DE   [8]  00 00 00 00 00 00 08 34   '.......4'
  can0  RX - -  1CB   [7]  00 00 00 00 10 02 C9      '.......'
  can0  RX - -  1CC   [4]  00 00 05 27               '...''
  can0  RX - -  2AA   [8]  00 08 83 E8 00 00 09 28   '.......('
  can0  RX - -  351   [8]  00 00 00 00 00 02 42 02   '......B.'
  can0  RX - -  180   [8]  00 00 00 00 00 00 24 00   '......$.'
  can0  RX - -  174   [8]  00 00 00 AA 04 00 00 00   '........'
  can0  RX - -  176   [7]  00 00 00 00 00 00 04      '.......'
  can0  RX - -  1D5   [5]  00 00 00 00 D6            '.....'
  can0  RX - -  1D6   [8]  00 00 00 00 00 41 00 09   '.....A..'
  can0  RX - -  002   [5]  00 00 00 07 8F            '.....'
  can0  RX - -  55B   [8]  F1 C0 AA 00 EB 80 13 38   '.......8'
  can0  RX - -  5BC   [8]  5D C0 F0 64 B6 11 00 28   ']..d...('
  can0  RX - -  215   [6]  FF F0 FF 00 FF FF         '......'
  can0  RX - -  284   [8]  00 00 00 00 00 00 8C 12   '........'
  can0  RX - -  216   [2]  42 64                     'Bd'
  can0  RX - -  285   [8]  00 00 00 00 00 00 8C 13   '........'
  can0  RX - -  1C3   [8]  00 00 00 00 64 00 FF 27   '....d..''
  can0  RX - -  2B0   [8]  00 0F FF 8C 1B 00 CE 00   '........'
  can0  RX - -  280   [8]  03 FF C0 00 00 00 FF C0   '........'
  can0  RX - -  2DE   [8]  00 00 00 00 00 00 08 34   '.......4'
  can0  RX - -  1CB   [7]  00 00 00 00 10 03 4C      '......L'
  can0  RX - -  1CC   [4]  00 00 05 36               '...6'
  can0  RX - -  300   [1]  00                        '.'
  can0  RX - -  02A   [6]  00 00 00 00 00 04         '......'
  can0  RX - -  174   [8]  00 00 00 AA 05 00 00 00   '........'
  can0  RX - -  176   [7]  00 00 00 00 00 00 05      '.......'
  can0  RX - -  180   [8]  00 00 00 00 00 00 25 00   '......%.'
  can0  RX - -  1D5   [5]  00 00 00 01 D7            '.....'
  can0  RX - -  1D6   [8]  00 00 00 00 00 41 00 1A   '.....A..'
  can0  RX - -  239   [8]  00 FF 60 20 42 00 3F F0   '..` B.?.'
  can0  RX - -  260   [4]  C8 C8 7D 00               '..}.'
  can0  RX - -  002   [5]  00 00 00 07 70            '....p'
  can0  RX - -  5C0   [8]  C0 7A 7A 00 A2 DC 1F 00   '.zz.....'
  can0  RX - -  245   [8]  7F E8 02 18 8D 00 7F E1   '........'
  can0  RX - -  292   [8]  7E C8 00 80 60 00 00 01   '~...`...'
  can0  RX - -  1C3   [8]  00 00 00 00 64 01 FF 28   '....d..('
  can0  RX - -  2B0   [8]  00 0F FF 8C 1B 00 DE 00   '........'
  can0  RX - -  2B1   [8]  01 00 51 00 00 00 00 00   '..Q.....'
  can0  RX - -  2DE   [8]  00 00 00 00 00 00 08 34   '.......4'
  can0  RX - -  1CB   [7]  00 00 00 00 10 00 46      '......F'
  can0  RX - -  1CC   [4]  00 00 05 41               '...A'
  can0  RX - -  2AA   [8]  00 08 83 E8 00 00 0A 29   '.......)'
  can0  RX - -  180   [8]  00 00 00 00 00 00 26 00   '......&.'
  can0  RX - -  174   [8]  00 00 00 AA 06 00 00 00   '........'
  can0  RX - -  176   [7]  00 00 00 00 00 00 06      '.......'
  can0  RX - -  1D5   [5]  00 00 00 02 D8            '.....'
  can0  RX - -  1D6   [8]  00 00 00 00 00 41 00 2B   '.....A.+'
  can0  RX - -  50A   [8]  04 70 00 19 00 21 04 00   '.p...!..'
  can0  RX - -  50D   [8]  63 00 00 00 00 80 00 00   'c.......'
  can0  RX - -  510   [8]  08 00 30 00 0E 00 00 7E   '..0....~'
  can0  RX - -  002   [5]  00 00 00 07 61            '....a'
  can0  RX - -  551   [8]  00 00 00 80 FF 00 00 00   '........'
  can0  RX - -  5A9   [8]  86 41 A0 13 44 A0 00 00   '.A..D...'
  can0  RX - -  5B3   [8]  64 B6 FF EF C1 56 F0 8A   'd....V..'
  can0  RX - -  215   [6]  FF F0 FF 00 FF FF         '......'
  can0  RX - -  284   [8]  00 00 00 00 00 00 8D 13   '........'
  can0  RX - -  216   [2]  42 64                     'Bd'
  can0  RX - -  285   [8]  00 00 00 00 00 00 8D 14   '........'
  can0  RX - -  354   [8]  00 00 00 00 00 18 00 00   '........'
  can0  RX - -  1C3   [8]  00 00 00 00 64 02 FF 29   '....d..)'
  can0  RX - -  2B0   [8]  00 0F FF 8C 1B 00 EE 00   '........'
  can0  RX - -  280   [8]  03 FF C0 00 00 00 FF C0   '........'
  can0  RX - -  2DE   [8]  00 00 00 00 00 00 08 34   '.......4'
  can0  RX - -  355   [8]  00 00 00 00 00 00 40 00   '......@.'
  can0  RX - -  1CB   [7]  00 00 00 00 10 01 C3      '.......'
  can0  RX - -  1CC   [4]  00 00 05 50               '...P'
  can0  RX - -  54A   [8]  A0 80 70 06 32 00 00 3E   '..p.2..>'
  can0  RX - -  481   [2]  32 80                     '2.'
  can0  RX - -  300   [1]  00                        '.'
  can0  RX - -  54B   [8]  10 46 98 12 0C 00 00 00   '.F......'
  can0  RX - -  180   [8]  00 00 00 00 00 00 27 00   '......'.'
  can0  RX - -  174   [8]  00 00 00 AA 07 00 00 00   '........'
  can0  RX - -  176   [7]  00 00 00 00 00 00 07      '.......'
  can0  RX - -  1D5   [5]  00 00 00 03 D9            '.....'
  can0  RX - -  1D6   [8]  00 00 00 00 00 41 00 3C   '.....A.<'
  can0  RX - -  239   [8]  00 FF 60 20 43 00 3F F0   '..` C.?.'
  can0  RX - -  260   [4]  C8 C8 7D 00               '..}.'
  can0  RX - -  002   [5]  00 00 00 07 52            '....R'
  can0  RX - -  421   [3]  08 00 40                  '..@'
  can0  RX - -  245   [8]  7F E8 02 18 8E 00 7F E2   '........'
  can0  RX - -  292   [8]  7E C8 00 80 70 00 00 02   '~...p...'
  can0  RX - -  1C3   [8]  00 00 00 00 64 03 FF 2A   '....d..*'
  can0  RX - -  2B0   [8]  00 0F FF 8C 1B 00 FE 00   '........'
  can0  RX - -  2B1   [8]  01 00 51 00 00 00 00 00   '..Q.....'
  can0  RX - -  2DE   [8]  00 00 00 00 00 00 08 34   '.......4'
  can0  RX - -  1CB   [7]  00 00 00 00 10 02 C9      '.......'
  can0  RX - -  1CC   [4]  00 00 05 63               '...c'
  can0  RX - -  2AA   [8]  00 08 83 E8 00 00 0B 2A   '.......*'
  can0  RX - -  180   [8]  00 00 00 00 00 00 28 00   '......(.'
  can0  RX - -  174   [8]  00 00 00 AA 08 00 00 00   '........'
  can0  RX - -  176   [7]  00 00 00 00 00 00 08      '.......'
  can0  RX - -  1D5   [5]  00 00 00 00 D6            '.....'
  can0  RX - -  1D6   [8]  00 00 00 00 00 41 00 09   '.....A..'
  can0  RX - -  002   [5]  00 00 00 07 43            '....C'
  can0  RX - -  215   [6]  FF F0 FF 00 FF FF         '......'
  can0  RX - -  284   [8]  00 00 00 00 00 00 8E 14   '........'
  can0  RX - -  216   [2]  42 64                     'Bd'
  can0  RX - -  285   [8]  00 00 00 00 00 00 8E 15   '........'
  can0  RX - -  625   [6]  02 60 FF 1D 20 00         '.`.. .'
  can0  RX - -  1C3   [8]  00 00 00 00 64 00 FF 27   '....d..''
  can0  RX - -  2B0   [8]  00 0F FF 8C 1B 00 0E 00   '........'
  can0  RX - -  280   [8]  03 FF C0 00 00 00 FF C0   '........'
  can0  RX - -  2DE   [8]  00 00 00 00 00 00 08 34   '.......4'
  can0  RX - -  559   [3]  48 00 20                  'H. '
  can0  RX - -  1CB   [7]  00 00 00 00 10 03 4C      '......L'
  can0  RX - -  1CC   [4]  00 00 05 72               '...r'
  can0  RX - -  300   [1]  00                        '.'
  can0  RX - -  358   [8]  00 88 80 00 00 00 00 00   '........'
  can0  RX - -  35D   [8]  80 03 00 00 00 00 00 00   '........'
  can0  RX - -  515   [5]  02 00 1B 86 00            '.....'
  can0  RX - -  180   [8]  00 00 00 00 00 00 29 00   '......).'
  can0  RX - -  174   [8]  00 00 00 AA 09 00 00 00   '........'
  can0  RX - -  176   [7]  00 00 00 00 00 00 09      '.......'
  can0  RX - -  1D5   [5]  00 00 00 01 D7            '.....'
  can0  RX - -  1D6   [8]  00 00 00 00 00 41 00 1A   '.....A..'
  can0  RX - -  239   [8]  00 FF 60 20 40 00 3F F0   '..` @.?.'
  can0  RX - -  260   [4]  C8 C8 7D 00               '..}.'
  can0  RX - -  002   [5]  00 00 00 07 34            '....4'
  can0  RX - -  245   [8]  7F E8 02 18 8F 00 7F E3   '........'
  can0  RX - -  292   [8]  7E C8 00 80 70 00 00 03   '~...p...'
  can0  RX - -  1C3   [8]  00 00 00 00 64 01 FF 28   '....d..('
  can0  RX - -  2B0   [8]  00 0F FF 8C 1B 00 1E 00   '........'
  can0  RX - -  2B1   [8]  01 00 51 00 00 00 00 00   '..Q.....'
  can0  RX - -  2DE   [8]  00 00 00 00 00 00 08 34   '.......4'
  can0  RX - -  1CB   [7]  00 00 00 00 10 00 46      '......F'
  can0  RX - -  1CC   [4]  00 00 05 8D               '....'
  can0  RX - -  2AA   [8]  00 08 83 E8 00 00 0C 2B   '.......+'
  can0  RX - -  60D   [8]  16 06 00 00 00 00 00 00   '........'
  can0  RX - -  56E   [4]  46 00 00 00               'F...'
  can0  RX - -  180   [8]  00 00 00 00 00 00 2A 00   '......*.'
  can0  RX - -  174   [8]  00 00 00 AA 0A 00 00 00   '........'
  can0  RX - -  176   [7]  00 00 00 00 00 00 0A      '.......'
  can0  RX - -  1D5   [5]  00 00 00 02 D8            '.....'
  can0  RX - -  1D6   [8]  00 00 00 00 00 41 00 2B   '.....A.+'
  can0  RX - -  390   [8]  04 00 00 00 00 80 21 C7   '......!.'
  can0  RX - -  002   [5]  00 00 00 07 25            '....%'
  can0  RX - -  215   [6]  FF F0 FF 00 FF FF         '......'
  can0  RX - -  284   [8]  00 00 00 00 00 00 8F 15   '........'
  can0  RX - -  216   [2]  42 64                     'Bd'
  can0  RX - -  285   [8]  00 00 00 00 00 00 8F 16   '........'
  can0  RX - -  354   [8]  00 00 00 00 00 00 00 00   '........'
  can0  RX - -  1C3   [8]  00 00 00 00 64 02 FF 29   '....d..)'
  can0  RX - -  2B0   [8]  00 0F FF 8C 1B 00 2E 00   '........'
  can0  RX - -  5C5   [8]  40 00 60 94 00 0C 00 00   '@.`.....'
  can0  RX - -  280   [8]  03 FF C0 00 00 00 FF C0   '........'
  can0  RX - -  1CB   [7]  00 00 00 00 10 01 C3      '.......'
  can0  RX - -  1CC   [4]  00 00 05 9C               '....'
  can0  RX - -  2DE   [8]  00 00 00 00 00 00 08 34   '.......4'
  can0  RX - -  355   [8]  00 00 00 00 00 00 40 00   '......@.'
  can0  RX - -  300   [1]  00                        '.'
  can0  RX - -  4F2   [4]  00 00 00 00               '....'
  can0  RX - -  5E4   [3]  04 00 00                  '...'
  can0  RX - -  180   [8]  00 00 00 00 00 00 2B 00   '......+.'
  can0  RX - -  174   [8]  00 00 00 AA 0B 00 00 00   '........'
  can0  RX - -  176   [7]  00 00 00 00 00 00 0B      '.......'
  can0  RX - -  1D5   [5]  00 00 00 03 D9            '.....'
  can0  RX - -  1D6   [8]  00 00 00 00 00 41 00 3C   '.....A.<'
  can0  RX - -  239   [8]  00 FF 60 20 41 00 3F F0   '..` A.?.'
  can0  RX - -  260   [4]  C8 C8 7D 00               '..}.'
  can0  RX - -  002   [5]  00 00 00 07 16            '.....'
  can0  RX - -  245   [8]  7F E8 02 18 90 00 7F E0   '........'
  can0  RX - -  292   [8]  7E C8 00 80 60 00 00 00   '~...`...'
  can0  RX - -  6F6   [3]  75 00 00                  'u..'
  can0  RX - -  1C3   [8]  00 00 00 00 64 03 FF 2A   '....d..*'
  can0  RX - -  2B0   [8]  00 0F FF 8C 1B 00 3E 00   '......>.'
  can0  RX - -  2B1   [8]  01 00 51 00 00 00 00 00   '..Q.....'
  can0  RX - -  2DE   [8]  00 00 00 00 00 00 08 34   '.......4'
  can0  RX - -  1CB   [7]  00 00 00 00 10 02 C9      '.......'
  can0  RX - -  1CC   [4]  00 00 05 AF               '....'
  can0  RX - -  2AA   [8]  00 08 83 E8 00 00 0D 2C   '.......,'
  can0  RX - -  180   [8]  00 00 00 00 00 00 2C 00   '......,.'
  can0  RX - -  174   [8]  00 00 00 AA 0C 00 00 00   '........'
  can0  RX - -  176   [7]  00 00 00 00 00 00 0C      '.......'
  can0  RX - -  1D5   [5]  00 00 00 00 D6            '.....'
  can0  RX - -  1D6   [8]  00 00 00 00 00 41 00 09   '.....A..'
  can0  RX - -  002   [5]  00 00 00 07 07            '.....'
  can0  RX - -  215   [6]  FF F0 FF 00 FF FF         '......'
  can0  RX - -  284   [8]  00 00 00 00 00 00 90 16   '........'
  can0  RX - -  216   [2]  42 64                     'Bd'
  can0  RX - -  285   [8]  00 00 00 00 00 00 90 17   '........'
  can0  RX - -  1C3   [8]  00 00 00 00 64 00 FF 27   '....d..''
  can0  RX - -  2B0   [8]  00 0F FF 8C 1B 00 4E 00   '......N.'
  can0  RX - -  280   [8]  03 FF C0 00 00 00 FF C0   '........'
  can0  RX - -  2DE   [8]  00 00 00 00 00 00 08 34   '.......4'
  can0  RX - -  1CB   [7]  00 00 00 00 10 03 4C      '......L'
  can0  RX - -  1CC   [4]  00 00 05 BE               '....'
  can0  RX - -  300   [1]  00                        '.'
  can0  RX - -  180   [8]  00 00 00 00 00 00 2D 00   '......-.'
  can0  RX - -  174   [8]  00 00 00 AA 0D 00 00 00   '........'
  can0  RX - -  176   [7]  00 00 00 00 00 00 0D      '.......'
  can0  RX - -  1D5   [5]  00 00 00 01 D7            '.....'
  can0  RX - -  1D6   [8]  00 00 00 00 00 41 00 1A   '.....A..'
  can0  RX - -  239   [8]  00 FF 60 20 42 00 3F F0   '..` B.?.'
  can0  RX - -  260   [4]  C8 C8 7D 00               '..}.'
  can0  RX - -  421   [3]  08 00 40                  '..@'
  can0  RX - -  002   [5]  00 00 00 07 F8            '.....'
  can0  RX - -  245   [8]  7F E8 02 18 91 00 7F E1   '........'
  can0  RX - -  292   [8]  7E C8 00 80 60 00 00 01   '~...`...'
  can0  RX - -  4CB   [8]  20 20 00 00 00 00 00 00   '  ......'
  can0  RX - -  1C3   [8]  00 00 00 00 64 01 FF 28   '....d..('
  can0  RX - -  2B0   [8]  00 0F FF 8C 1B 00 5E 00   '......^.'
  can0  RX - -  2DE   [8]  00 00 00 00 00 00 08 34   '.......4'
  can0  RX - -  2B1   [8]  01 00 51 00 00 00 00 00   '..Q.....'
  can0  RX - -  1CB   [7]  00 00 00 00 10 00 46      '......F'
  can0  RX - -  1CC   [4]  00 00 05 C9               '....'
  can0  RX - -  2AA   [8]  00 08 83 E8 00 00 0E 2D   '.......-'
  can0  RX - -  351   [8]  00 00 00 00 00 02 42 02   '......B.'
  can0  RX - -  180   [8]  00 00 00 00 00 00 2E 00   '........'
  can0  RX - -  174   [8]  00 00 00 AA 0E 00 00 00   '........'
  can0  RX - -  176   [7]  00 00 00 00 00 00 0E      '.......'
  can0  RX - -  1D5   [5]  00 00 00 02 D8            '.....'
  can0  RX - -  1D6   [8]  00 00 00 00 00 41 00 2B   '.....A.+'
  can0  RX - -  002   [5]  00 00 00 07 E9            '.....'
  can0  RX - -  55B   [8]  F1 C0 AA 00 EB 80 10 32   '.......2'
  can0  RX - -  5BC   [8]  55 80 F0 64 B7 01 60 46   'U..d..`F'
  can0  RX - -  215   [6]  FF F0 FF 00 FF FF         '......'
  can0  RX - -  284   [8]  00 00 00 00 00 00 91 17   '........'
  can0  RX - -  216   [2]  42 64                     'Bd'
  can0  RX - -  285   [8]  00 00 00 00 00 00 91 18   '........'
  can0  RX - -  354   [8]  00 00 00 00 00 08 00 00   '........'
  can0  RX - -  1C3   [8]  00 00 00 00 64 02 FF 29   '....d..)'
  can0  RX - -  2B0   [8]  00 0F FF 8C 1B 00 6E 00   '......n.'
  can0  RX - -  280   [8]  03 FF C0 00 00 00 FF C0   '........'
  can0  RX - -  2DE   [8]  00 00 00 00 00 00 08 34   '.......4'
  can0  RX - -  355   [8]  00 00 00 00 00 00 40 00   '......@.'
  can0  RX - -  1CB   [7]  00 00 00 00 10 01 C3      '.......'
  can0  RX - -  1CC   [4]  00 00 05 D8               '....'
  can0  RX - -  300   [1]  00                        '.'
  can0  RX - -  02A   [6]  00 00 00 00 00 08         '......'
  can0  RX - -  180   [8]  00 00 00 00 00 00 2F 00   '....../.'
  can0  RX - -  174   [8]  00 00 00 AA 0F 00 00 00   '........'
  can0  RX - -  176   [7]  00 00 00 00 00 00 0F      '.......'
  can0  RX - -  1D5   [5]  00 00 00 03 D9            '.....'
  can0  RX - -  1D6   [8]  00 00 00 00 00 41 00 3C   '.....A.<'
  can0  RX - -  239   [8]  00 FF 60 20 43 00 3F F0   '..` C.?.'
  can0  RX - -  260   [4]  C8 C8 7D 00               '..}.'
  can0  RX - -  002   [5]  00 00 00 07 DA            '.....'
  can0  RX - -  245   [8]  7F E8 02 18 92 00 7F E2   '........'
  can0  RX - -  292   [8]  7E C8 00 80 70 00 00 02   '~...p...'
  can0  RX - -  1C3   [8]  00 00 00 00 64 03 FF 2A   '....d..*'
  can0  RX - -  2B0   [8]  00 0F FF 8C 1B 00 7E 00   '......~.'
  can0  RX - -  2B1   [8]  01 00 51 00 00 00 00 00   '..Q.....'
  can0  RX - -  2DE   [8]  00 00 00 00 00 00 08 34   '.......4'
  can0  RX - -  1CB   [7]  00 00 00 00 10 02 C9      '.......'
  can0  RX - -  1CC   [4]  00 00 05 EB               '....'
  can0  RX - -  2AA   [8]  00 08 83 E8 00 00 0F 2E   '........'
  can0  RX - -  180   [8]  00 00 00 00 00 00 20 00   '...... .'
  can0  RX - -  174   [8]  00 00 00 AA 00 00 00 00   '........'
  can0  RX - -  176   [7]  00 00 00 00 00 00 00      '.......'
  can0  RX - -  1D5   [5]  00 00 00 00 D6            '.....'
  can0  RX - -  1D6   [8]  00 00 00 00 00 41 00 09   '.....A..'
  can0  RX - -  50A   [8]  04 10 00 19 00 21 04 00   '.....!..'
  can0  RX - -  50D   [8]  63 00 00 00 00 80 00 00   'c.......'
  can0  RX - -  510   [8]  08 00 30 00 0E 00 00 7E   '..0....~'
  can0  RX - -  002   [5]  00 00 00 07 CB            '.....'
  can0  RX - -  551   [8]  00 00 00 80 FF 00 00 00   '........'
  can0  RX - -  5A9   [8]  86 41 A0 13 44 A0 00 00   '.A..D...'
  can0  RX - -  5B3   [8]  64 B6 FF E3 C1 56 F0 8A   'd....V..'
  can0  RX - -  215   [6]  FF F0 FF 00 FF FF         '......'
  can0  RX - -  284   [8]  00 00 00 00 00 00 92 18   '........'
  can0  RX - -  216   [2]  42 64                     'Bd'
  can0  RX - -  285   [8]  00 00 00 00 00 00 92 19   '........'
  can0  RX - -  1C3   [8]  00 00 00 00 64 00 FF 27   '....d..''
  can0  RX - -  2B0   [8]  00 0F FF 8C 1B 00 8E 00   '........'
  can0  RX - -  280   [8]  03 FF C0 00 00 00 FF C0   '........'
  can0  RX - -  2DE   [8]  00 00 00 00 00 00 08 34   '.......4'
  can0  RX - -  1CB   [7]  00 00 00 00 10 03 4C      '......L'
  can0  RX - -  1CC   [4]  00 00 05 FA               '....'
  can0  RX - -  54A   [8]  12 80 70 06 32 00 00 3E   '..p.2..>'
  can0  RX - -  54B   [8]  10 46 98 12 0C 00 00 00   '.F......'
  can0  RX - -  300   [1]  00                        '.'
  can0  RX - -  180   [8]  00 00 00 00 00 00 21 00   '......!.'
  can0  RX - -  174   [8]  00 00 00 AA 01 00 00 00   '........'
  can0  RX - -  176   [7]  00 00 00 00 00 00 01      '.......'
  can0  RX - -  1D5   [5]  00 00 00 01 D7            '.....'
  can0  RX - -  1D6   [8]  00 00 00 00 00 41 00 1A   '.....A..'
  can0  RX - -  239   [8]  00 FF 60 20 40 00 3F F0   '..` @.?.'
  can0  RX - -  260   [4]  C8 C8 7D 00               '..}.'
  can0  RX - -  002   [5]  00 00 00 07 BC            '.....'
  can0  RX - -  245   [8]  7F E8 02 18 93 00 7F E3   '........'
  can0  RX - -  292   [8]  7E C8 00 80 50 00 00 03   '~...P...'
  can0  RX - -  1C3   [8]  00 00 00 00 64 01 FF 28   '....d..('
  can0  RX - -  2B0   [8]  00 0F FF 8C 1B 00 9E 00   '........'
  can0  RX - -  2B1   [8]  01 00 51 00 00 00 00 00   '..Q.....'
  can0  RX - -  2DE   [8]  00 00 00 00 00 00 08 34   '.......4'
  can0  RX - -  1CB   [7]  00 00 00 00 10 00 46      '......F'
  can0  RX - -  1CC   [4]  00 00 05 05               '....'
  can0  RX - -  2AA   [8]  00 08 83 E8 00 00 00 1F   '........'
  can0  RX - -  180   [8]  00 00 00 00 00 00 22 00   '......".'
  can0  RX - -  174   [8]  00 00 00 AA 02 00 00 00   '........'
  can0  RX - -  176   [7]  00 00 00 00 00 00 02      '.......'
  can0  RX - -  1D5   [5]  00 00 00 02 D8            '.....'
  can0  RX - -  1D6   [8]  00 00 00 00 00 41 00 2B   '.....A.+'
  can0  RX - -  002   [5]  00 00 00 07 AD            '.....'
  can0  RX - -  284   [8]  00 00 00 00 00 00 93 19   '........'
  can0  RX - -  215   [6]  FF F0 FF 00 FF FF         '......'
  can0  RX - -  285   [8]  00 00 00 00 00 00 93 1A   '........'
  can0  RX - -  216   [2]  42 64                     'Bd'
  can0  RX - -  354   [8]  00 00 00 00 00 10 00 00   '........'
  can0  RX - -  625   [6]  02 60 FF 1D 20 00         '.`.. .'
  can0  RX - -  1C3   [8]  00 00 00 00 64 02 FF 29   '....d..)'
  can0  RX - -  2B0   [8]  00 0F FF 8C 1B 00 AE 00   '........'
  can0  RX - -  280   [8]  03 FF C0 00 00 00 FF C0   '........'
  can0  RX - -  2DE   [8]  00 00 00 00 00 00 08 34   '.......4'
  can0  RX - -  355   [8]  00 00 00 00 00 00 40 00   '......@.'
  can0  RX - -  1CB   [7]  00 00 00 00 10 01 C3      '.......'
  can0  RX - -  1CC   [4]  00 00 05 14               '....'
  can0  RX - -  559   [3]  48 00 20                  'H. '
  can0  RX - -  300   [1]  00                        '.'
  can0  RX - -  358   [8]  00 88 80 00 00 00 00 00   '........'
  can0  RX - -  35D   [8]  80 03 00 00 00 00 00 00   '........'
  can0  RX - -  515   [5]  02 00 F7 75 00            '...u.'
  can0  RX - -  180   [8]  00 00 00 00 00 00 23 00   '......#.'
  can0  RX - -  174   [8]  00 00 00 AA 03 00 00 00   '........'
  can0  RX - -  176   [7]  00 00 00 00 00 00 03      '.......'
  can0  RX - -  1D5   [5]  00 00 00 03 D9            '.....'
  can0  RX - -  1D6   [8]  00 00 00 00 00 41 00 3C   '.....A.<'
  can0  RX - -  239   [8]  00 FF 60 20 41 00 3F F0   '..` A.?.'
  can0  RX - -  260   [4]  C8 C8 7D 00               '..}.'
  can0  RX - -  421   [3]  08 00 40                  '..@'
  can0  RX - -  002   [5]  00 00 00 07 9E            '.....'
  can0  RX - -  245   [8]  7F E8 02 18 94 00 7F E0   '........'
  can0  RX - -  292   [8]  7E C8 00 80 60 00 00 00   '~...`...'
  can0  RX - -  1C3   [8]  00 00 00 00 64 03 FF 2A   '....d..*'
  can0  RX - -  2B0   [8]  00 0F FF 8C 1B 00 BE 00   '........'
  can0  RX - -  2B1   [8]  01 00 51 00 00 00 00 00   '..Q.....'
  can0  RX - -  2DE   [8]  00 00 00 00 00 00 08 34   '.......4'
  can0  RX - -  1CB   [7]  00 00 00 00 10 02 C9      '.......'
  can0  RX - -  1CC   [4]  00 00 05 27               '...''
  can0  RX - -  2AA   [8]  00 08 83 E8 00 00 01 20   '....... '
  can0  RX - -  60D   [8]  16 06 00 00 00 00 00 00   '........'
  can0  RX - -  56E   [4]  46 00 00 00               'F...'
  can0  RX - -  180   [8]  00 00 00 00 00 00 24 00   '......$.'
  can0  RX - -  174   [8]  00 00 00 AA 04 00 00 00   '........'
  can0  RX - -  176   [7]  00 00 00 00 00 00 04      '.......'
  can0  RX - -  1D5   [5]  00 00 00 00 D6            '.....'
  can0  RX - -  1D6   [8]  00 00 00 00 00 41 00 09   '.....A..'
  can0  RX - -  390   [8]  04 00 00 00 00 80 21 D8   '......!.'
  can0  RX - -  002   [5]  00 00 00 07 8F            '.....'
  can0  RX - -  284   [8]  00 00 00 00 00 00 94 1A   '........'
  can0  RX - -  215   [6]  FF F0 FF 00 FF FF         '......'
  can0  RX - -  285   [8]  00 00 00 00 00 00 94 1B   '........'
  can0  RX - -  216   [2]  42 64                     'Bd'
  can0  RX - -  1C3   [8]  00 00 00 00 64 00 FF 27   '....d..''
  can0  RX - -  2B0   [8]  00 0F FF 8C 1B 00 CE 00   '........'
  can0  RX - -  5C5   [8]  40 00 60 94 00 0C 00 00   '@.`.....'
  can0  RX - -  280   [8]  03 FF C0 00 00 00 FF C0   '........'
  can0  RX - -  1CB   [7]  00 00 00 00 10 03 4C      '......L'
  can0  RX - -  1CC   [4]  00 00 05 36               '...6'
  can0  RX - -  2DE   [8]  00 00 00 00 00 00 08 34   '.......4'
  can0  RX - -  4F2   [4]  00 00 00 00               '....'
  can0  RX - -  300   [1]  00                        '.'
  can0  RX - -  5E4   [3]  04 00 00                  '...'
  can0  RX - -  174   [8]  00 00 00 AA 05 00 00 00   '........'
  can0  RX - -  176   [7]  00 00 00 00 00 00 05      '.......'
  can0  RX - -  180   [8]  00 00 00 00 00 00 25 00   '......%.'
  can0  RX - -  1D5   [5]  00 00 00 01 D7            '.....'
  can0  RX - -  1D6   [8]  00 00 00 00 00 41 00 1A   '.....A..'
  can0  RX - -  239   [8]  00 FF 60 20 42 00 3F F0   '..` B.?.'
  can0  RX - -  260   [4]  C8 C8 7D 00               '..}.'
  can0  RX - -  002   [5]  00 00 00 07 70            '....p'
  can0  RX - -  245   [8]  7F E8 02 18 95 00 7F E1   '........'
  can0  RX - -  292   [8]  7E C8 00 80 60 00 00 01   '~...`...'
  can0  RX - -  6F6   [3]  75 00 00                  'u..'
  can0  RX - -  1C3   [8]  00 00 00 00 64 01 FF 28   '....d..('
  can0  RX - -  2B0   [8]  00 0F FF 8C 1B 00 DE 00   '........'
  can0  RX - -  2B1   [8]  01 00 51 00 00 00 00 00   '..Q.....'
  can0  RX - -  2DE   [8]  00 00 00 00 00 00 08 34   '.......4'
  can0  RX - -  1CB   [7]  00 00 00 00 10 00 46      '......F'
  can0  RX - -  1CC   [4]  00 00 05 41               '...A'
  can0  RX - -  2AA   [8]  00 08 83 E8 00 00 02 21   '.......!'
  can0  RX - -  180   [8]  00 00 00 00 00 00 26 00   '......&.'
  can0  RX - -  174   [8]  00 00 00 AA 06 00 00 00   '........'
  can0  RX - -  176   [7]  00 00 00 00 00 00 06      '.......'
  can0  RX - -  1D5   [5]  00 00 00 02 D8            '.....'
  can0  RX - -  1D6   [8]  00 00 00 00 00 41 00 2B   '.....A.+'
  can0  RX - -  002   [5]  00 00 00 07 61            '....a'
  can0  RX - -  284   [8]  00 00 00 00 00 00 95 1B   '........'
  can0  RX - -  215   [6]  FF F0 FF 00 FF FF         '......'
  can0  RX - -  285   [8]  00 00 00 00 00 00 95 1C   '........'
  can0  RX - -  216   [2]  42 64                     'Bd'
  can0  RX - -  354   [8]  00 00 00 00 00 18 00 00   '........'
  can0  RX - -  1C3   [8]  00 00 00 00 64 02 FF 29   '....d..)'
  can0  RX - -  2B0   [8]  00 0F FF 8C 1B 00 EE 00   '........'
  can0  RX - -  280   [8]  03 FF C0 00 00 00 FF C0   '........'
  can0  RX - -  2DE   [8]  00 00 00 00 00 00 08 34   '.......4'
  can0  RX - -  355   [8]  00 00 00 00 00 00 40 00   '......@.'
  can0  RX - -  1CB   [7]  00 00 00 00 10 01 C3      '.......'
  can0  RX - -  1CC   [4]  00 00 05 50               '...P'
  can0  RX - -  300   [1]  00                        '.'
  can0  RX - -  180   [8]  00 00 00 00 00 00 27 00   '......'.'
  can0  RX - -  174   [8]  00 00 00 AA 07 00 00 00   '........'
  can0  RX - -  176   [7]  00 00 00 00 00 00 07      '.......'
  can0  RX - -  1D5   [5]  00 00 00 03 D9            '.....'
  can0  RX - -  1D6   [8]  00 00 00 00 00 41 00 3C   '.....A.<'
  can0  RX - -  239   [8]  00 FF 60 20 43 00 3F F0   '..` C.?.'
  can0  RX - -  260   [4]  C8 C8 7D 00               '..}.'
  can0  RX - -  002   [5]  00 00 00 07 52            '....R'
  can0  RX - -  245   [8]  7F E8 02 18 96 00 7F E2   '........'
  can0  RX - -  292   [8]  7E C8 00 80 60 00 00 02   '~...`...'
  can0  RX - -  5FC   [7]  7B 03 B6 50 63 00 FF      '{..Pc..'
  can0  RX - -  5FB   [6]  FF 1F E0 00 03 00         '......'
  can0  RX - -  4CB   [8]  20 20 00 00 00 00 00 00   '  ......'
  can0  RX - -  1C3   [8]  00 00 00 00 64 03 FF 2A   '....d..*'
  can0  RX - -  2B0   [8]  00 0F FF 8C 1B 00 FE 00   '........'
  can0  RX - -  2DE   [8]  00 00 00 00 00 00 08 34   '.......4'
  can0  RX - -  2B1   [8]  01 00 51 00 00 00 00 00   '..Q.....'
  can0  RX - -  1CB   [7]  00 00 00 00 10 02 C9      '.......'
  can0  RX - -  1CC   [4]  00 00 05 63               '...c'
  can0  RX - -  2AA   [8]  00 08 83 E8 00 00 03 22   '......."'
  can0  RX - -  351   [8]  00 00 00 00 00 02 42 02   '......B.'
  can0  RX - -  180   [8]  00 00 00 00 00 00 28 00   '......(.'
  can0  RX - -  174   [8]  00 00 00 AA 08 00 00 00   '........'
  can0  RX - -  176   [7]  00 00 00 00 00 00 08      '.......'
  can0  RX - -  1D5   [5]  00 00 00 00 D6            '.....'
  can0  RX - -  1D6   [8]  00 00 00 00 00 41 00 09   '.....A..'
  can0  RX - -  002   [5]  00 00 00 07 43            '....C'
  can0  RX - -  55B   [8]  F1 C0 55 00 EB 80 11 F0   '..U.....'
  can0  RX - -  5BC   [8]  5D C0 F0 64 B7 12 5F FF   ']..d.._.'
  can0  RX - -  284   [8]  00 00 00 00 00 00 96 1C   '........'
  can0  RX - -  215   [6]  FF F0 FF 00 FF FF         '......'
  can0  RX - -  285   [8]  00 00 00 00 00 00 96 1D   '........'
  can0  RX - -  216   [2]  42 64                     'Bd'
  can0  RX - -  1C3   [8]  00 00 00 00 64 00 FF 27   '....d..''
  can0  RX - -  2B0   [8]  00 0F FF 8C 1B 00 0E 00   '........'
  can0  RX - -  280   [8]  03 FF C0 00 00 00 FF C0   '........'
  can0  RX - -  2DE   [8]  00 00 00 00 00 00 08 34   '.......4'
  can0  RX - -  1CB   [7]  00 00 00 00 10 03 4C      '......L'
  can0  RX - -  1CC   [4]  00 00 05 72               '...r'
  can0  RX - -  300   [1]  00                        '.'
  can0  RX - -  02A   [6]  00 00 00 00 00 0C         '......'
  can0  RX - -  180   [8]  00 00 00 00 00 00 29 00   '......).'
  can0  RX - -  174   [8]  00 00 00 AA 09 00 00 00   '........'
  can0  RX - -  176   [7]  00 00 00 00 00 00 09      '.......'
  can0  RX - -  1D5   [5]  00 00 00 01 D7            '.....'
  can0  RX - -  1D6   [8]  00 00 00 00 00 41 00 1A   '.....A..'
  can0  RX - -  239   [8]  00 FF 60 20 40 00 3F F0   '..` @.?.'
  can0  RX - -  260   [4]  C8 C8 7D 00               '..}.'
  can0  RX - -  421   [3]  08 00 40                  '..@'
  can0  RX - -  002   [5]  00 00 00 07 34            '....4'
  can0  RX - -  245   [8]  7F E8 02 18 97 00 7F E3   '........'
  can0  RX - -  292   [8]  7E C8 00 80 60 00 00 03   '~...`...'
  can0  RX - -  1C3   [8]  00 00 00 00 64 01 FF 28   '....d..('
  can0  RX - -  2B0   [8]  00 0F FF 8C 1B 00 1E 00   '........'
  can0  RX - -  2B1   [8]  01 00 51 00 00 00 00 00   '..Q.....'
  can0  RX - -  2DE   [8]  00 00 00 00 00 00 08 34   '.......4'
  can0  RX - -  1CB   [7]  00 00 00 00 10 00 46      '......F'
  can0  RX - -  1CC   [4]  00 00 05 8D               '....'
  can0  RX - -  2AA   [8]  00 08 83 E8 00 00 04 23   '.......#'
  can0  RX - -  180   [8]  00 00 00 00 00 00 2A 00   '......*.'
  can0  RX - -  174   [8]  00 00 00 AA 0A 00 00 00   '........'
  can0  RX - -  176   [7]  00 00 00 00 00 00 0A      '.......'
  can0  RX - -  1D5   [5]  00 00 00 02 D8            '.....'
  can0  RX - -  1D6   [8]  00 00 00 00 00 41 00 2B   '.....A.+'
  can0  RX - -  50A   [8]  04 30 00 19 00 21 04 00   '.0...!..'
  can0  RX - -  50D   [8]  63 00 00 00 00 80 00 00   'c.......'
  can0  RX - -  510   [8]  08 00 30 00 0E 00 00 7E   '..0....~'
  can0  RX - -  002   [5]  00 00 00 07 25            '....%'
  can0  RX - -  551   [8]  00 00 00 80 FF 00 00 00   '........'
  can0  RX - -  5A9   [8]  86 41 A0 13 44 A0 00 00   '.A..D...'
  can0  RX - -  5B3   [8]  64 B6 FF E3 C1 56 F0 8A   'd....V..'
  can0  RX - -  284   [8]  00 00 00 00 00 00 97 1D   '........'
  can0  RX - -  215   [6]  FF F0 FF 00 FF FF         '......'
  can0  RX - -  285   [8]  00 00 00 00 00 00 97 1E   '........'
  can0  RX - -  216   [2]  42 64                     'Bd'
  can0  RX - -  354   [8]  00 00 00 00 00 00 00 00   '........'
  can0  RX - -  1C3   [8]  00 00 00 00 64 02 FF 29   '....d..)'
  can0  RX - -  2B0   [8]  00 0F FF 8C 1B 00 2E 00   '........'
  can0  RX - -  280   [8]  03 FF C0 00 00 00 FF C0   '........'
  can0  RX - -  2DE   [8]  00 00 00 00 00 00 08 34   '.......4'
  can0  RX - -  355   [8]  00 00 00 00 00 00 40 00   '......@.'
  can0  RX - -  1CB   [7]  00 00 00 00 10 01 C3      '.......'
  can0  RX - -  1CC   [4]  00 00 05 9C               '....'
  can0  RX - -  54A   [8]  A0 80 70 06 32 00 00 3E   '..p.2..>'
  can0  RX - -  54B   [8]  10 46 98 12 0C 00 00 00   '.F......'
  can0  RX - -  300   [1]  00                        '.'
  can0  RX - -  180   [8]  00 00 00 00 00 00 2B 00   '......+.'
  can0  RX - -  174   [8]  00 00 00 AA 0B 00 00 00   '........'
  can0  RX - -  176   [7]  00 00 00 00 00 00 0B      '.......'
  can0  RX - -  1D5   [5]  00 00 00 03 D9            '.....'
  can0  RX - -  1D6   [8]  00 00 00 00 00 41 00 3C   '.....A.<'
  can0  RX - -  239   [8]  00 FF 60 20 41 00 3F F0   '..` A.?.'
  can0  RX - -  260   [4]  C8 C8 7D 00               '..}.'
  can0  RX - -  002   [5]  00 00 00 07 16            '.....'
  can0  RX - -  245   [8]  7F E8 02 18 98 00 7F E0   '........'
  can0  RX - -  292   [8]  7E C8 00 80 70 00 00 00   '~...p...'
  can0  RX - -  1C3   [8]  00 00 00 00 64 03 FF 2A   '....d..*'
  can0  RX - -  2B0   [8]  00 0F FF 8C 1B 00 3E 00   '......>.'
  can0  RX - -  2B1   [8]  01 00 51 00 00 00 00 00   '..Q.....'
  can0  RX - -  2DE   [8]  00 00 00 00 00 00 08 34   '.......4'
  can0  RX - -  1CB   [7]  00 00 00 00 10 02 C9      '.......'
  can0  RX - -  1CC   [4]  00 00 05 AF               '....'
  can0  RX - -  2AA   [8]  00 08 83 E8 00 00 05 24   '.......$'
  can0  RX - -  180   [8]  00 00 00 00 00 00 2C 00   '......,.'
  can0  RX - -  174   [8]  00 00 00 AA 0C 00 00 00   '........'
  can0  RX - -  176   [7]  00 00 00 00 00 00 0C      '.......'
  can0  RX - -  1D5   [5]  00 00 00 00 D6            '.....'
  can0  RX - -  1D6   [8]  00 00 00 00 00 41 00 09   '.....A..'
  can0  RX - -  5EB   [8]  00 3F FF FF FF FF FF FF   '.?......'
  can0  RX - -  5F8   [8]  00 00 FF FC 1C F8 7C 00   '......|.'
  can0  RX - -  5F9   [8]  FF 1F E0 00 3A 7B 00 00   '....:{..'
  can0  RX - -  002   [5]  00 00 00 07 07            '.....'
  can0  RX - -  284   [8]  00 00 00 00 00 00 98 1E   '........'
  can0  RX - -  215   [6]  FF F0 FF 00 FF FF         '......'
  can0  RX - -  285   [8]  00 00 00 00 00 00 98 1F   '........'
  can0  RX - -  216   [2]  42 64                     'Bd'
  can0  RX - -  625   [6]  02 60 FF 1D 20 00         '.`.. .'
  can0  RX - -  1C3   [8]  00 00 00 00 64 00 FF 27   '....d..''
  can0  RX - -  2B0   [8]  00 0F FF 8C 1B 00 4E 00   '......N.'
  can0  RX - -  280   [8]  03 FF C0 00 00 00 FF C0   '........'
  can0  RX - -  2DE   [8]  00 00 00 00 00 00 08 34   '.......4'
  can0  RX - -  1CB   [7]  00 00 00 00 10 03 4C      '......L'
  can0  RX - -  1CC   [4]  00 00 05 BE               '....'
  can0  RX - -  559   [3]  48 00 20                  'H. '
  can0  RX - -  300   [1]  00                        '.'
  can0  RX - -  358   [8]  00 88 80 00 00 00 00 00   '........'
  can0  RX - -  35D   [8]  80 03 00 00 00 00 00 00   '........'
  can0  RX - -  515   [5]  02 00 BB AA 00            '.....'
  can0  RX - -  180   [8]  00 00 00 00 00 00 2D 00   '......-.'
  can0  RX - -  174   [8]  00 00 00 AA 0D 00 00 00   '........'
  can0  RX - -  176   [7]  00 00 00 00 00 00 0D      '.......'
  can0  RX - -  1D5   [5]  00 00 00 01 D7            '.....'
  can0  RX - -  1D6   [8]  00 00 00 00 00 41 00 1A   '.....A..'
  can0  RX - -  239   [8]  00 FF 60 20 42 00 3F F0   '..` B.?.'
  can0  RX - -  260   [4]  C8 C8 7D 00               '..}.'
  can0  RX - -  002   [5]  00 00 00 07 F8            '.....'
  can0  RX - -  245   [8]  7F E8 02 18 99 00 7F E1   '........'
  can0  RX - -  292   [8]  7E C8 00 80 60 00 00 01   '~...`...'
  can0  RX - -  1C3   [8]  00 00 00 00 64 01 FF 28   '....d..('
  can0  RX - -  2B0   [8]  00 0F FF 8C 1B 00 5E 00   '......^.'
  can0  RX - -  2B1   [8]  01 00 51 00 00 00 00 00   '..Q.....'
  can0  RX - -  2DE   [8]  00 00 00 00 00 00 08 34   '.......4'
  can0  RX - -  1CB   [7]  00 00 00 00 10 00 46      '......F'
  can0  RX - -  1CC   [4]  00 00 05 C9               '....'
  can0  RX - -  2AA   [8]  00 08 83 E8 00 00 06 25   '.......%'
  can0  RX - -  60D   [8]  16 06 00 00 00 00 00 00   '........'
  can0  RX - -  56E   [4]  46 00 00 00               'F...'
  can0  RX - -  180   [8]  00 00 00 00 00 00 2E 00   '........'
  can0  RX - -  174   [8]  00 00 00 AA 0E 00 00 00   '........'
  can0  RX - -  176   [7]  00 00 00 00 00 00 0E      '.......'
  can0  RX - -  1D5   [5]  00 00 00 02 D8            '.....'
  can0  RX - -  1D6   [8]  00 00 00 00 00 41 00 2B   '.....A.+'
  can0  RX - -  390   [8]  04 00 00 00 00 80 21 E9   '......!.'
  can0  RX - -  002   [5]  00 00 00 07 E9            '.....'
  can0  RX - -  284   [8]  00 00 00 00 00 00 99 1F   '........'
  can0  RX - -  215   [6]  FF F0 FF 00 FF FF         '......'
  can0  RX - -  285   [8]  00 00 00 00 00 00 99 20   '....... '
  can0  RX - -  216   [2]  42 64                     'Bd'
  can0  RX - -  354   [8]  00 00 00 00 00 08 00 00   '........'
  can0  RX - -  1C3   [8]  00 00 00 00 64 02 FF 29   '....d..)'
  can0  RX - -  2B0   [8]  00 0F FF 8C 1B 00 6E 00   '......n.'
  can0  RX - -  5C5   [8]  40 00 60 94 00 0C 00 00   '@.`.....'
  can0  RX - -  280   [8]  03 FF C0 00 00 00 FF C0   '........'
  can0  RX - -  1CB   [7]  00 00 00 00 10 01 C3      '.......'
  can0  RX - -  1CC   [4]  00 00 05 D8               '....'
  can0  RX - -  2DE   [8]  00 00 00 00 00 00 08 34   '.......4'
  can0  RX - -  355   [8]  00 00 00 00 00 00 40 00   '......@.'
  can0  RX - -  300   [1]  00                        '.'
  can0  RX - -  4F2   [4]  00 00 00 00               '....'
  can0  RX - -  5E4   [3]  04 00 00                  '...'
  can0  RX - -  180   [8]  00 00 00 00 00 00 2F 00   '....../.'
  can0  RX - -  174   [8]  00 00 00 AA 0F 00 00 00   '........'
  can0  RX - -  176   [7]  00 00 00 00 00 00 0F      '.......'
  can0  RX - -  1D5   [5]  00 00 00 03 D9            '.....'
  can0  RX - -  1D6   [8]  00 00 00 00 00 41 00 3C   '.....A.<'
  can0  RX - -  239   [8]  00 FF 60 20 43 00 3F F0   '..` C.?.'
  can0  RX - -  260   [4]  C8 C8 7D 00               '..}.'
  can0  RX - -  421   [3]  08 00 40                  '..@'
  can0  RX - -  002   [5]  00 00 00 07 DA            '.....'
  can0  RX - -  245   [8]  7F E8 02 18 9A 00 7F E2   '........'
  can0  RX - -  292   [8]  7E C8 00 80 70 00 00 02   '~...p...'
  can0  RX - -  6F6   [3]  75 00 00                  'u..'
  can0  RX - -  1C3   [8]  00 00 00 00 64 03 FF 2A   '....d..*'
  can0  RX - -  2B0   [8]  00 0F FF 8C 1B 00 7E 00   '......~.'
  can0  RX - -  2B1   [8]  01 00 51 00 00 00 00 00   '..Q.....'
  can0  RX - -  2DE   [8]  00 00 00 00 00 00 08 34   '.......4'
  can0  RX - -  1CB   [7]  00 00 00 00 10 02 C9      '.......'
  can0  RX - -  1CC   [4]  00 00 05 EB               '....'
  can0  RX - -  2AA   [8]  00 08 83 E8 00 00 07 26   '.......&'
  can0  RX - -  180   [8]  00 00 00 00 00 00 20 00   '...... .'
  can0  RX - -  174   [8]  00 00 00 AA 00 00 00 00   '........'
  can0  RX - -  176   [7]  00 00 00 00 00 00 00      '.......'
  can0  RX - -  1D5   [5]  00 00 00 00 D6            '.....'
  can0  RX - -  1D6   [8]  00 00 00 00 00 41 00 09   '.....A..'
  can0  RX - -  002   [5]  00 00 00 07 CB            '.....'
  can0  RX - -  284   [8]  00 00 00 00 00 00 9A 20   '....... '
  can0  RX - -  215   [6]  FF F0 FF 00 FF FF         '......'
  can0  RX - -  285   [8]  00 00 00 00 00 00 9A 21   '.......!'
  can0  RX - -  216   [2]  42 64                     'Bd'
  can0  RX - -  1C3   [8]  00 00 00 00 64 00 FF 27   '....d..''
  can0  RX - -  2B0   [8]  00 0F FF 8C 1B 00 8E 00   '........'
  can0  RX - -  280   [8]  03 FF C0 00 00 00 FF C0   '........'
  can0  RX - -  2DE   [8]  00 00 00 00 00 00 08 34   '.......4'
  can0  RX - -  1CB   [7]  00 00 00 00 10 03 4C      '......L'
  can0  RX - -  1CC   [4]  00 00 05 FA               '....'
  can0  RX - -  300   [1]  00                        '.'
  can0  RX - -  180   [8]  00 00 00 00 00 00 21 00   '......!.'
  can0  RX - -  174   [8]  00 00 00 AA 01 00 00 00   '........'
  can0  RX - -  176   [7]  00 00 00 00 00 00 01      '.......'
  can0  RX - -  1D5   [5]  00 00 00 01 D7            '.....'
  can0  RX - -  1D6   [8]  00 00 00 00 00 41 00 1A   '.....A..'
  can0  RX - -  239   [8]  00 FF 60 20 40 00 3F F0   '..` @.?.'
  can0  RX - -  260   [4]  C8 C8 7D 00               '..}.'
  can0  RX - -  002   [5]  00 00 00 07 BC            '.....'
  can0  RX - -  245   [8]  7F E8 02 18 9B 00 7F E3   '........'
  can0  RX - -  292   [8]  7E C8 00 80 50 00 00 03   '~...P...'
  can0  RX - -  4CB   [8]  20 20 00 00 00 00 00 00   '  ......'
  can0  RX - -  1C3   [8]  00 00 00 00 64 01 FF 28   '....d..('
  can0  RX - -  2DE   [8]  00 00 00 00 00 00 08 34   '.......4'
  can0  RX - -  2B0   [8]  00 0F FF 8C 1B 00 9E 00   '........'
  can0  RX - -  509   [8]  FF 7B 01 ED 00 55 60 FF   '.{...U`.'
  can0  RX - -  1CB   [7]  00 00 00 00 10 00 46      '......F'
  can0  RX - -  1CC   [4]  00 00 05 05               '....'
  can0  RX - -  2AA   [8]  00 08 83 E8 00 00 08 27   '.......''
  can0  RX - -  2B1   [8]  01 00 51 00 00 00 00 00   '..Q.....'
  can0  RX - -  351   [8]  00 00 00 00 00 02 42 02   '......B.'
  can0  RX - -  180   [8]  00 00 00 00 00 00 22 00   '......".'
  can0  RX - -  174   [8]  00 00 00 AA 02 00 00 00   '........'
  can0  RX - -  176   [7]  00 00 00 00 00 00 02      '.......'
  can0  RX - -  1D5   [5]  00 00 00 02 D8            '.....'
  can0  RX - -  1D6   [8]  00 00 00 00 00 41 00 2B   '.....A.+'
  can0  RX - -  002   [5]  00 00 00 07 AD            '.....'
  can0  RX - -  55B   [8]  F1 C0 55 00 EB 80 12 FA   '..U.....'
  can0  RX - -  5BC   [8]  55 80 F0 64 B7 02 BF FF   'U..d....'
  can0  RX - -  284   [8]  00 00 00 00 00 00 9B 21   '.......!'
  can0  RX - -  215   [6]  FF F0 FF 00 FF FF         '......'
  can0  RX - -  285   [8]  00 00 00 00 00 00 9B 22   '......."'
  can0  RX - -  216   [2]  42 64                     'Bd'
  can0  RX - -  354   [8]  00 00 00 00 00 10 00 00   '........'
  can0  RX - -  1C3   [8]  00 00 00 00 64 02 FF 29   '....d..)'
  can0  RX - -  2B0   [8]  00 0F FF 8C 1B 00 AE 00   '........'
  can0  RX - -  280   [8]  03 FF C0 00 00 00 FF C0   '........'
  can0  RX - -  2DE   [8]  00 00 00 00 00 00 08 34   '.......4'
  can0  RX - -  355   [8]  00 00 00 00 00 00 40 00   '......@.'
  can0  RX - -  1CB   [7]  00 00 00 00 10 01 C3      '.......'
  can0  RX - -  1CC   [4]  00 00 05 14               '....'
  can0  RX - -  300   [1]  00                        '.'
  can0  RX - -  02A   [6]  00 00 00 00 00 00         '......'
  can0  RX - -  180   [8]  00 00 00 00 00 00 23 00   '......#.'
  can0  RX - -  174   [8]  00 00 00 AA 03 00 00 00   '........'
  can0  RX - -  176   [7]  00 00 00 00 00 00 03      '.......'
  can0  RX - -  1D5   [5]  00 00 00 03 D9            '.....'
  can0  RX - -  1D6   [8]  00 00 00 00 00 41 00 3C   '.....A.<'
  can0  RX - -  239   [8]  00 FF 60 20 41 00 3F F0   '..` A.?.'
  can0  RX - -  260   [4]  C8 C8 7D 00               '..}.'
  can0  RX - -  002   [5]  00 00 00 07 9E            '.....'
  can0  RX - -  245   [8]  7F E8 02 18 9C 00 7F E0   '........'
  can0  RX - -  292   [8]  7E C8 00 80 50 00 00 00   '~...P...'
  can0  RX - -  1C3   [8]  00 00 00 00 64 03 FF 2A   '....d..*'
  can0  RX - -  2B0   [8]  00 0F FF 8C 1B 00 BE 00   '........'
  can0  RX - -  2B1   [8]  01 00 51 00 00 00 00 00   '..Q.....'
  can0  RX - -  2DE   [8]  00 00 00 00 00 00 08 34   '.......4'
  can0  RX - -  1CB   [7]  00 00 00 00 10 02 C9      '.......'
  can0  RX - -  1CC   [4]  00 00 05 27               '...''
  can0  RX - -  2AA   [8]  00 08 83 E8 00 00 09 28   '.......('
  can0  RX - -  180   [8]  00 00 00 00 00 00 24 00   '......$.'
  can0  RX - -  174   [8]  00 00 00 AA 04 00 00 00   '........'
  can0  RX - -  176   [7]  00 00 00 00 00 00 04      '.......'
  can0  RX - -  1D5   [5]  00 00 00 00 D6            '.....'
  can0  RX - -  1D6   [8]  00 00 00 00 00 41 00 09   '.....A..'
  can0  RX - -  50A   [8]  04 50 00 19 00 21 04 00   '.P...!..'
  can0  RX - -  50D   [8]  63 00 00 00 00 80 00 00   'c.......'
  can0  RX - -  510   [8]  08 00 40 00 0E 00 00 7E   '..@....~'
  can0  RX - -  002   [5]  00 00 00 07 8F            '.....'
  can0  RX - -  551   [8]  00 00 00 80 FF 00 00 00   '........'
  can0  RX - -  5A9   [8]  86 41 A0 13 44 A0 00 00   '.A..D...'
  can0  RX - -  5B3   [8]  64 B6 FF E7 C1 56 F0 8A   'd....V..'
  can0  RX - -  284   [8]  00 00 00 00 00 00 9C 22   '......."'
  can0  RX - -  215   [6]  FF F0 FF 00 FF FF         '......'
  can0  RX - -  285   [8]  00 00 00 00 00 00 9C 23   '.......#'
  can0  RX - -  216   [2]  42 64                     'Bd'
  can0  RX - -  1C3   [8]  00 00 00 00 64 00 FF 27   '....d..''
  can0  RX - -  280   [8]  03 FF C0 00 00 00 FF C0   '........'
  can0  RX - -  2B0   [8]  00 0F FF 8C 1B 00 CE 00   '........'
  can0  RX - -  2DE   [8]  00 00 00 00 00 00 08 34   '.......4'
  can0  RX - -  1CB   [7]  00 00 00 00 10 03 4C      '......L'
  can0  RX - -  1CC   [4]  00 00 05 36               '...6'
  can0  RX - -  54A   [8]  12 80 70 06 32 00 00 3E   '..p.2..>'
  can0  RX - -  54B   [8]  10 46 98 12 0C 00 00 00   '.F......'
  can0  RX - -  300   [1]  00                        '.'
  can0  RX - -  180   [8]  00 00 00 00 00 00 25 00   '......%.'
  can0  RX - -  174   [8]  00 00 00 AA 05 00 00 00   '........'
  can0  RX - -  176   [7]  00 00 00 00 00 00 05      '.......'
  can0  RX - -  1D5   [5]  00 00 00 01 D7            '.....'
  can0  RX - -  1D6   [8]  00 00 00 00 00 41 00 1A   '.....A..'
  can0  RX - -  239   [8]  00 FF 60 20 42 00 3F F0   '..` B.?.'
  can0  RX - -  260   [4]  C8 C8 7D 00               '..}.'
  can0  RX - -  002   [5]  00 00 00 07 70            '....p'
  can0  RX - -  421   [3]  08 00 40                  '..@'
  can0  RX - -  245   [8]  7F E8 02 18 9D 00 7F E1   '........'
  can0  RX - -  292   [8]  7E C8 00 80 60 00 00 01   '~...`...'
  can0  RX - -  1C3   [8]  00 00 00 00 64 01 FF 28   '....d..('
  can0  RX - -  2B0   [8]  00 0F FF 8C 1B 00 DE 00   '........'
  can0  RX - -  2B1   [8]  01 00 51 00 00 00 00 00   '..Q.....'
  can0  RX - -  2DE   [8]  00 00 00 00 00 00 08 34   '.......4'
  can0  RX - -  1CB   [7]  00 00 00 00 10 00 46      '......F'
  can0  RX - -  1CC   [4]  00 00 05 41               '...A'
  can0  RX - -  2AA   [8]  00 08 83 E8 00 00 0A 29   '.......)'
  can0  RX - -  180   [8]  00 00 00 00 00 00 26 00   '......&.'
  can0  RX - -  174   [8]  00 00 00 AA 06 00 00 00   '........'
  can0  RX - -  176   [7]  00 00 00 00 00 00 06      '.......'
  can0  RX - -  1D5   [5]  00 00 00 02 D8            '.....'
  can0  RX - -  1D6   [8]  00 00 00 00 00 41 00 2B   '.....A.+'
  can0  RX - -  002   [5]  00 00 00 07 61            '....a'
  can0  RX - -  284   [8]  00 00 00 00 00 00 9D 23   '.......#'
  can0  RX - -  215   [6]  FF F0 FF 00 FF FF         '......'
  can0  RX - -  285   [8]  00 00 00 00 00 00 9D 24   '.......$'
  can0  RX - -  216   [2]  42 64                     'Bd'
  can0  RX - -  354   [8]  00 00 00 00 00 18 00 00   '........'
  can0  RX - -  625   [6]  02 60 FF 1D 20 00         '.`.. .'
  can0  RX - -  1C3   [8]  00 00 00 00 64 02 FF 29   '....d..)'
  can0  RX - -  280   [8]  03 FF C0 00 00 00 FF C0   '........'
  can0  RX - -  2B0   [8]  00 0F FF 8C 1B 00 EE 00   '........'
  can0  RX - -  2DE   [8]  00 00 00 00 00 00 08 34   '.......4'
  can0  RX - -  1CB   [7]  00 00 00 00 10 01 C3      '.......'
  can0  RX - -  1CC   [4]  00 00 05 50               '...P'
  can0  RX - -  355   [8]  00 00 00 00 00 00 40 00   '......@.'
  can0  RX - -  559   [3]  48 00 20                  'H. '
  can0  RX - -  300   [1]  00                        '.'
  can0  RX - -  358   [8]  00 88 80 00 00 00 00 00   '........'
  can0  RX - -  35D   [8]  80 03 00 00 00 00 00 00   '........'
  can0  RX - -  515   [5]  02 00 68 41 00            '..hA.'
  can0  RX - -  421   [3]  08 00 00                  '...'
  can0  RX - -  174   [8]  00 00 00 AA 07 00 00 00   '........'
  can0  RX - -  176   [7]  00 00 00 00 00 00 07      '.......'
  can0  RX - -  180   [8]  00 00 00 00 00 00 27 00   '......'.'
  can0  RX - -  1D5   [5]  00 00 00 03 D9            '.....'
  can0  RX - -  1D6   [8]  00 00 00 00 00 41 00 3C   '.....A.<'
  can0  RX - -  239   [8]  00 FF 60 20 43 00 3F F0   '..` C.?.'
  can0  RX - -  260   [4]  C8 C8 7D 00               '..}.'
  can0  RX - -  002   [5]  00 00 00 07 52            '....R'
  can0  RX - -  245   [8]  7F E8 02 18 9E 00 7F E2   '........'
  can0  RX - -  292   [8]  7E C8 00 80 60 00 00 02   '~...`...'
  can0  RX - -  1C3   [8]  00 00 00 00 64 03 FF 2A   '....d..*'
  can0  RX - -  2B0   [8]  00 0F FF 8C 1B 00 FE 00   '........'
  can0  RX - -  2DE   [8]  00 00 00 00 00 00 08 34   '.......4'
  can0  RX - -  2B1   [8]  01 00 51 00 00 00 00 00   '..Q.....'
  can0  RX - -  1CB   [7]  00 00 00 00 10 02 C9      '.......'
  can0  RX - -  1CC   [4]  00 00 05 63               '...c'
  can0  RX - -  2AA   [8]  00 08 83 E8 00 00 0B 2A   '.......*'
  can0  RX - -  60D   [8]  16 06 00 00 00 00 00 00   '........'
  can0  RX - -  56E   [4]  46 00 00 00               'F...'
  can0  RX - -  180   [8]  00 00 00 00 00 00 28 00   '......(.'
  can0  RX - -  174   [8]  00 00 00 AA 08 00 00 00   '........'
  can0  RX - -  176   [7]  00 00 00 00 00 00 08      '.......'
  can0  RX - -  1D5   [5]  00 00 00 00 D6            '.....'
  can0  RX - -  1D6   [8]  00 00 00 00 00 41 00 09   '.....A..'
  can0  RX - -  390   [8]  04 00 00 00 00 80 21 FA   '......!.'
  can0  RX - -  002   [5]  00 00 00 07 43            '....C'
  can0  RX - -  284   [8]  00 00 00 00 00 00 9E 24   '.......$'
  can0  RX - -  215   [6]  FF F0 FF 00 FF FF         '......'
  can0  RX - -  285   [8]  00 00 00 00 00 00 9E 25   '.......%'
  can0  RX - -  216   [2]  42 64                     'Bd'
  can0  RX - -  1C3   [8]  00 00 00 00 64 00 FF 27   '....d..''
  can0  RX - -  2B0   [8]  00 0F FF 8C 1B 00 0E 00   '........'
  can0  RX - -  5C5   [8]  40 00 60 94 00 0C 00 00   '@.`.....'
  can0  RX - -  280   [8]  03 FF C0 00 00 00 FF C0   '........'
  can0  RX - -  1CB   [7]  00 00 00 00 10 03 4C      '......L'
  can0  RX - -  1CC   [4]  00 00 05 72               '...r'
  can0  RX - -  2DE   [8]  00 00 00 00 00 00 08 34   '.......4'
  can0  RX - -  4F2   [4]  00 00 00 00               '....'
  can0  RX - -  300   [1]  00                        '.'
  can0  RX - -  509   [8]  FF 7B 01 ED 00 55 70 FF   '.{...Up.'
  can0  RX - -  5E3   [5]  86 13 44 A1 00            '..D..'
  can0  RX - -  5E4   [3]  04 00 00                  '...'
  can0  RX - -  180   [8]  00 00 00 00 00 00 29 00   '......).'
  can0  RX - -  174   [8]  00 00 00 AA 09 00 00 00   '........'
  can0  RX - -  176   [7]  00 00 00 00 00 00 09      '.......'
  can0  RX - -  1D5   [5]  00 00 00 01 D7            '.....'
  can0  RX - -  1D6   [8]  00 00 00 00 00 41 00 1A   '.....A..'
  can0  RX - -  239   [8]  00 FF 60 20 40 00 3F F0   '..` @.?.'
  can0  RX - -  260   [4]  C8 C8 7D 00               '..}.'
  can0  RX - -  002   [5]  00 00 00 07 34            '....4'
  can0  RX - -  245   [8]  7F E8 02 18 9F 00 7F E3   '........'
  can0  RX - -  292   [8]  7E C8 00 80 50 00 00 03   '~...P...'
  can0  RX - -  6F6   [3]  75 00 00                  'u..'
  can0  RX - -  1C3   [8]  00 00 00 00 64 01 FF 28   '....d..('
  can0  RX - -  2B0   [8]  00 0F FF 8C 1B 00 1E 00   '........'
  can0  RX - -  2B1   [8]  01 00 51 00 00 00 00 00   '..Q.....'
  can0  RX - -  2DE   [8]  00 00 00 00 00 00 08 34   '.......4'
  can0  RX - -  1CB   [7]  00 00 00 00 10 00 46      '......F'
  can0  RX - -  1CC   [4]  00 00 05 8D               '....'
  can0  RX - -  2AA   [8]  00 08 83 E8 00 00 0C 2B   '.......+'
  can0  RX - -  180   [8]  00 00 00 00 00 00 2A 00   '......*.'
  can0  RX - -  174   [8]  00 00 00 AA 0A 00 00 00   '........'
  can0  RX - -  176   [7]  00 00 00 00 00 00 0A      '.......'
  can0  RX - -  1D5   [5]  00 00 00 02 D8            '.....'
  can0  RX - -  1D6   [8]  00 00 00 00 00 41 00 2B   '.....A.+'
  can0  RX - -  002   [5]  00 00 00 07 25            '....%'
  can0  RX - -  284   [8]  00 00 00 00 00 00 9F 25   '.......%'
  can0  RX - -  215   [6]  FF F0 FF 00 FF FF         '......'
  can0  RX - -  285   [8]  00 00 00 00 00 00 9F 26   '.......&'
  can0  RX - -  216   [2]  42 64                     'Bd'
  can0  RX - -  354   [8]  00 00 00 00 00 00 00 00   '........'
  can0  RX - -  1C3   [8]  00 00 00 00 64 02 FF 29   '....d..)'
  can0  RX - -  280   [8]  03 FF C0 00 00 00 FF C0   '........'
  can0  RX - -  2B0   [8]  00 0F FF 8C 1B 00 2E 00   '........'
  can0  RX - -  2DE   [8]  00 00 00 00 00 00 08 34   '.......4'
  can0  RX - -  1CB   [7]  00 00 00 00 10 01 C3      '.......'
  can0  RX - -  1CC   [4]  00 00 05 9C               '....'
  can0  RX - -  355   [8]  00 00 00 00 00 00 40 00   '......@.'
  can0  RX - -  300   [1]  00                        '.'
  can0  RX - -  180   [8]  00 00 00 00 00 00 2B 00   '......+.'
  can0  RX - -  174   [8]  00 00 00 AA 0B 00 00 00   '........'
  can0  RX - -  176   [7]  00 00 00 00 00 00 0B      '.......'
  can0  RX - -  1D5   [5]  00 00 00 03 D9            '.....'
  can0  RX - -  1D6   [8]  00 00 00 00 00 41 00 3C   '.....A.<'
  can0  RX - -  239   [8]  00 FF 60 20 41 00 3F F0   '..` A.?.'
  can0  RX - -  260   [4]  C8 C8 7D 00               '..}.'
  can0  RX - -  421   [3]  08 00 00                  '...'
  can0  RX - -  002   [5]  00 00 00 07 16            '.....'
  can0  RX - -  245   [8]  7F E8 02 18 A0 00 7F E0   '........'
  can0  RX - -  292   [8]  7E C8 00 80 60 00 00 00   '~...`...'
  can0  RX - -  4CB   [8]  20 20 00 00 00 00 00 00   '  ......'
  can0  RX - -  1C3   [8]  00 00 00 00 64 03 FF 2A   '....d..*'
  can0  RX - -  2DE   [8]  00 00 00 00 00 00 08 34   '.......4'
  can0  RX - -  2B0   [8]  00 0F FF 8C 1B 00 3E 00   '......>.'
  can0  RX - -  1CB   [7]  00 00 00 00 10 02 C9      '.......'
  can0  RX - -  1CC   [4]  00 00 05 AF               '....'
  can0  RX - -  2AA   [8]  00 08 83 E8 00 00 0D 2C   '.......,'
  can0  RX - -  2B1   [8]  01 00 51 00 00 00 00 00   '..Q.....'
  can0  RX - -  351   [8]  00 00 00 00 00 02 42 02   '......B.'
  can0  RX - -  180   [8]  00 00 00 00 00 00 2C 00   '......,.'
  can0  RX - -  174   [8]  00 00 00 AA 0C 00 00 00   '........'
  can0  RX - -  176   [7]  00 00 00 00 00 00 0C      '.......'
  can0  RX - -  1D5   [5]  00 00 00 00 D6            '.....'
  can0  RX - -  1D6   [8]  00 00 00 00 00 41 00 09   '.....A..'
  can0  RX - -  002   [5]  00 00 00 07 07            '.....'
  can0  RX - -  55B   [8]  F1 C0 55 00 EB 80 13 7F   '..U.....'
  can0  RX - -  5BC   [8]  5D C0 F0 64 B7 13 1F FF   ']..d....'
  can0  RX - -  284   [8]  00 00 00 00 00 00 A0 26   '.......&'
  can0  RX - -  215   [6]  FF F0 FF 00 FF FF         '......'
  can0  RX - -  285   [8]  00 00 00 00 00 00 A0 27   '.......''
  can0  RX - -  216   [2]  42 64                     'Bd'
  can0  RX - -  1C3   [8]  00 00 00 00 64 00 FF 27   '....d..''
  can0  RX - -  280   [8]  03 FF C0 00 00 00 FF C0   '........'
  can0  RX - -  2B0   [8]  00 0F FF 8C 1B 00 4E 00   '......N.'
  can0  RX - -  2DE   [8]  00 00 00 00 00 00 08 34   '.......4'
  can0  RX - -  1CB   [7]  00 00 00 00 10 03 4C      '......L'
  can0  RX - -  1CC   [4]  00 00 05 BE               '....'
  can0  RX - -  300   [1]  00                        '.'
  can0  RX - -  02A   [6]  00 00 00 00 00 04         '......'
  can0  RX - -  180   [8]  00 00 00 00 00 00 2D 00   '......-.'
  can0  RX - -  174   [8]  00 00 00 AA 0D 00 00 00   '........'
  can0  RX - -  176   [7]  00 00 00 00 00 00 0D      '.......'
  can0  RX - -  1D5   [5]  00 00 00 01 D7            '.....'
  can0  RX - -  1D6   [8]  00 00 00 00 00 41 00 1A   '.....A..'
  can0  RX - -  239   [8]  00 FF 60 20 42 00 3F F0   '..` B.?.'
  can0  RX - -  260   [4]  C8 C8 7D 00               '..}.'
  can0  RX - -  002   [5]  00 00 00 07 F8            '.....'
  can0  RX - -  245   [8]  7F E8 02 18 A1 00 7F E1   '........'
  can0  RX - -  292   [8]  7E C8 00 80 60 00 00 01   '~...`...'
  can0  RX - -  1C3   [8]  00 00 00 00 64 01 FF 28   '....d..('
  can0  RX - -  2B0   [8]  00 0F FF 8C 1B 00 5E 00   '......^.'
  can0  RX - -  2B1   [8]  01 00 51 00 00 00 00 00   '..Q.....'
  can0  RX - -  2DE   [8]  00 00 00 00 00 00 08 34   '.......4'
  can0  RX - -  1CB   [7]  00 00 00 00 10 00 46      '......F'
  can0  RX - -  1CC   [4]  00 00 05 C9               '....'
  can0  RX - -  2AA   [8]  00 08 83 E8 00 00 0E 2D   '.......-'
  can0  RX - -  180   [8]  00 00 00 00 00 00 2E 00   '........'
  can0  RX - -  174   [8]  00 00 00 AA 0E 00 00 00   '........'
  can0  RX - -  176   [7]  00 00 00 00 00 00 0E      '.......'
  can0  RX - -  1D5   [5]  00 00 00 02 D8            '.....'
  can0  RX - -  1D6   [8]  00 00 00 00 00 41 00 2B   '.....A.+'
  can0  RX - -  50A   [8]  04 70 00 19 00 21 04 00   '.p...!..'
  can0  RX - -  50D   [8]  63 00 00 00 00 80 00 00   'c.......'
  can0  RX - -  510   [8]  08 00 40 00 0E 00 00 7E   '..@....~'
  can0  RX - -  002   [5]  00 00 00 07 E9            '.....'
  can0  RX - -  551   [8]  00 00 00 80 FF 00 00 00   '........'
  can0  RX - -  5A9   [8]  86 41 A0 13 44 A0 00 00   '.A..D...'
  can0  RX - -  5B3   [8]  64 B6 FF E7 C1 56 F0 8A   'd....V..'
  can0  RX - -  284   [8]  00 00 00 00 00 00 A1 27   '.......''
  can0  RX - -  215   [6]  FF F0 FF 00 FF FF         '......'
  can0  RX - -  285   [8]  00 00 00 00 00 00 A1 28   '.......('
  can0  RX - -  216   [2]  42 64                     'Bd'
  can0  RX - -  354   [8]  00 00 00 00 00 08 00 00   '........'
  can0  RX - -  1C3   [8]  00 00 00 00 64 02 FF 29   '....d..)'
  can0  RX - -  280   [8]  03 FF C0 00 00 00 FF C0   '........'
  can0  RX - -  2B0   [8]  00 0F FF 8C 1B 00 6E 00   '......n.'
  can0  RX - -  2DE   [8]  00 00 00 00 00 00 08 34   '.......4'
  can0  RX - -  1CB   [7]  00 00 00 00 10 01 C3      '.......'
  can0  RX - -  1CC   [4]  00 00 05 D8               '....'
  can0  RX - -  355   [8]  00 00 00 00 00 00 40 00   '......@.'
  can0  RX - -  54A   [8]  A0 80 70 06 32 00 00 3E   '..p.2..>'
  can0  RX - -  300   [1]  00                        '.'
  can0  RX - -  54B   [8]  10 46 98 12 0C 00 00 00   '.F......'
  can0  RX - -  180   [8]  00 00 00 00 00 00 2F 00   '....../.'
  can0  RX - -  174   [8]  00 00 00 AA 0F 00 00 00   '........'
  can0  RX - -  176   [7]  00 00 00 00 00 00 0F      '.......'
  can0  RX - -  1D5   [5]  00 00 00 03 D9            '.....'
  can0  RX - -  1D6   [8]  00 00 00 00 00 41 00 3C   '.....A.<'
  can0  RX - -  239   [8]  00 FF 60 20 43 00 3F F0   '..` C.?.'
  can0  RX - -  260   [4]  C8 C8 7D 00               '..}.'
  can0  RX - -  002   [5]  00 00 00 07 DA            '.....'
  can0  RX - -  245   [8]  7F E8 02 18 A2 00 7F E2   '........'
  can0  RX - -  292   [8]  7E C8 00 80 60 00 00 02   '~...`...'
  can0  RX - -  1C3   [8]  00 00 00 00 64 03 FF 2A   '....d..*'
  can0  RX - -  2B0   [8]  00 0F FF 8C 1B 00 7E 00   '......~.'
  can0  RX - -  2B1   [8]  01 00 51 00 00 00 00 00   '..Q.....'
  can0  RX - -  2DE   [8]  00 00 00 00 00 00 08 34   '.......4'
  can0  RX - -  1CB   [7]  00 00 00 00 10 02 C9      '.......'
  can0  RX - -  1CC   [4]  00 00 05 EB               '....'
  can0  RX - -  2AA   [8]  00 08 83 E8 00 00 0F 2E   '........'
  can0  RX - -  180   [8]  00 00 00 00 00 00 20 00   '...... .'
  can0  RX - -  174   [8]  00 00 00 AA 00 00 00 00   '........'
  can0  RX - -  176   [7]  00 00 00 00 00 00 00      '.......'
  can0  RX - -  1D5   [5]  00 00 00 00 D6            '.....'
  can0  RX - -  1D6   [8]  00 00 00 00 00 41 00 09   '.....A..'
  can0  RX - -  002   [5]  00 00 00 07 CB            '.....'
  can0  RX - -  284   [8]  00 00 00 00 00 00 A2 28   '.......('
  can0  RX - -  215   [6]  FF F0 FF 00 FF FF         '......'
  can0  RX - -  285   [8]  00 00 00 00 00 00 A2 29   '.......)'
  can0  RX - -  216   [2]  42 64                     'Bd'
  can0  RX - -  625   [6]  02 60 FF 1D 20 00         '.`.. .'
  can0  RX - -  280   [8]  03 FF C0 00 00 00 FF C0   '........'
  can0  RX - -  1C3   [8]  00 00 00 00 64 00 FF 27   '....d..''
  can0  RX - -  2DE   [8]  00 00 00 00 00 00 08 34   '.......4'
  can0  RX - -  2B0   [8]  00 0F FF 8C 1B 00 8E 00   '........'
  can0  RX - -  1CB   [7]  00 00 00 00 10 03 4C      '......L'
  can0  RX - -  1CC   [4]  00 00 05 FA               '....'
  can0  RX - -  559   [3]  48 00 20                  'H. '
  can0  RX - -  358   [8]  00 88 80 00 00 00 00 00   '........'
  can0  RX - -  300   [1]  00                        '.'
  can0  RX - -  35D   [8]  80 03 00 00 00 00 00 00   '........'
  can0  RX - -  515   [5]  02 00 FD 21 00            '...!.'
  can0  RX - -  180   [8]  00 00 00 00 00 00 21 00   '......!.'
  can0  RX - -  174   [8]  00 00 00 AA 01 00 00 00   '........'
  can0  RX - -  176   [7]  00 00 00 00 00 00 01      '.......'
  can0  RX - -  1D5   [5]  00 00 00 01 D7            '.....'
  can0  RX - -  1D6   [8]  00 00 00 00 00 41 00 1A   '.....A..'
  can0  RX - -  239   [8]  00 FF 60 20 40 00 3F F0   '..` @.?.'
  can0  RX - -  260   [4]  C8 C8 7D 00               '..}.'
  can0  RX - -  421   [3]  08 00 00                  '...'
  can0  RX - -  002   [5]  00 00 00 07 BC            '.....'
  can0  RX - -  245   [8]  7F E8 02 18 A3 00 7F E3   '........'
  can0  RX - -  292   [8]  7E C8 00 80 60 00 00 03   '~...`...'
  can0  RX - -  1C3   [8]  00 00 00 00 64 01 FF 28   '....d..('
  can0  RX - -  2DE   [8]  00 00 00 00 00 00 08 34   '.......4'
  can0  RX - -  2B0   [8]  00 0F FF 8C 1B 00 9E 00   '........'
  can0  RX - -  2B1   [8]  01 00 51 00 00 00 00 00   '..Q.....'
  can0  RX - -  1CB   [7]  00 00 00 00 10 00 46      '......F'
  can0  RX - -  1CC   [4]  00 00 05 05               '....'
  can0  RX - -  2AA   [8]  00 08 83 E8 00 00 00 1F   '........'
  can0  RX - -  60D   [8]  16 06 00 00 00 00 00 00   '........'
  can0  RX - -  56E   [4]  46 00 00 00               'F...'
  can0  RX - -  180   [8]  00 00 00 00 00 00 22 00   '......".'
  can0  RX - -  174   [8]  00 00 00 AA 02 00 00 00   '........'
  can0  RX - -  176   [7]  00 00 00 00 00 00 02      '.......'
  can0  RX - -  1D5   [5]  00 00 00 02 D8            '.....'
  can0  RX - -  1D6   [8]  00 00 00 00 00 41 00 2B   '.....A.+'
  can0  RX - -  390   [8]  04 00 00 00 00 80 21 C7   '......!.'
  can0  RX - -  002   [5]  00 00 00 07 AD            '.....'
  can0  RX - -  284   [8]  00 00 00 00 00 00 A3 29   '.......)'
  can0  RX - -  285   [8]  00 00 00 00 00 00 A3 2A   '.......*'
  can0  RX - -  215   [6]  FF F0 FF 00 FF FF         '......'
  can0  RX - -  354   [8]  00 00 00 00 00 10 00 00   '........'
  can0  RX - -  216   [2]  42 64                     'Bd'
  can0  RX - -  1C3   [8]  00 00 00 00 64 02 FF 29   '....d..)'
  can0  RX - -  2B0   [8]  00 0F FF 8C 1B 00 AE 00   '........'
  can0  RX - -  5C5   [8]  40 00 60 94 00 0C 00 00   '@.`.....'
  can0  RX - -  1CB   [7]  00 00 00 00 10 01 C3      '.......'
  can0  RX - -  1CC   [4]  00 00 05 14               '....'
  can0  RX - -  280   [8]  03 FF C0 00 00 00 FF C0   '........'
  can0  RX - -  2DE   [8]  00 00 00 00 00 00 08 34   '.......4'
  can0  RX - -  355   [8]  00 00 00 00 00 00 40 00   '......@.'
  can0  RX - -  300   [1]  00                        '.'
  can0  RX - -  4F2   [4]  00 00 00 00               '....'
  can0  RX - -  5E4   [3]  04 00 00                  '...'
  can0  RX - -  180   [8]  00 00 00 00 00 00 23 00   '......#.'
  can0  RX - -  174   [8]  00 00 00 AA 03 00 00 00   '........'
  can0  RX - -  176   [7]  00 00 00 00 00 00 03      '.......'
  can0  RX - -  1D5   [5]  00 00 00 03 D9            '.....'
  can0  RX - -  1D6   [8]  00 00 00 00 00 41 00 3C   '.....A.<'
  can0  RX - -  239   [8]  00 FF 60 20 41 00 3F F0   '..` A.?.'
  can0  RX - -  260   [4]  C8 C8 7D 00               '..}.'
  can0  RX - -  002   [5]  00 00 00 07 9E            '.....'
  can0  RX - -  245   [8]  7F E8 02 18 A4 00 7F E0   '........'
  can0  RX - -  292   [8]  7E C8 00 80 60 00 00 00   '~...`...'
  can0  RX - -  6F6   [3]  75 00 00                  'u..'
  can0  RX - -  1C3   [8]  00 00 00 00 64 03 FF 2A   '....d..*'
  can0  RX - -  2B0   [8]  00 0F FF 8C 1B 00 BE 00   '........'
  can0  RX - -  2DE   [8]  00 00 00 00 00 00 08 34   '.......4'
  can0  RX - -  1CB   [7]  00 00 00 00 10 02 C9      '.......'
  can0  RX - -  1CC   [4]  00 00 05 27               '...''
  can0  RX - -  2AA   [8]  00 08 83 E8 00 00 01 20   '....... '
  can0  RX - -  2B1   [8]  01 00 51 00 00 00 00 00   '..Q.....'
  can0  RX - -  180   [8]  00 00 00 00 00 00 24 00   '......$.'
  can0  RX - -  174   [8]  00 00 00 AA 04 00 00 00   '........'
  can0  RX - -  176   [7]  00 00 00 00 00 00 04      '.......'
  can0  RX - -  1D5   [5]  00 00 00 00 D6            '.....'
  can0  RX - -  1D6   [8]  00 00 00 00 00 41 00 09   '.....A..'
  can0  RX - -  002   [5]  00 00 00 07 8F            '.....'
  can0  RX - -  284   [8]  00 00 00 00 00 00 A4 2A   '.......*'
  can0  RX - -  285   [8]  00 00 00 00 00 00 A4 2B   '.......+'
  can0  RX - -  215   [6]  FF F0 FF 00 FF FF         '......'
  can0  RX - -  216   [2]  42 64                     'Bd'
  can0  RX - -  280   [8]  03 FF C0 00 00 00 FF C0   '........'
  can0  RX - -  1C3   [8]  00 00 00 00 64 00 FF 27   '....d..''
  can0  RX - -  2DE   [8]  00 00 00 00 00 00 08 34   '.......4'
  can0  RX - -  1CB   [7]  00 00 00 00 10 03 4C      '......L'
  can0  RX - -  1CC   [4]  00 00 05 36               '...6'
  can0  RX - -  2B0   [8]  00 0F FF 8C 1B 00 CE 00   '........'
  can0  RX - -  300   [1]  00                        '.'
  can0  RX - -  180   [8]  00 00 00 00 00 00 25 00   '......%.'
  can0  RX - -  174   [8]  00 00 00 AA 05 00 00 00   '........'
  can0  RX - -  176   [7]  00 00 00 00 00 00 05      '.......'
  can0  RX - -  1D5   [5]  00 00 00 01 D7            '.....'
  can0  RX - -  1D6   [8]  00 00 00 00 00 41 00 1A   '.....A..'
  can0  RX - -  239   [8]  00 FF 60 20 42 00 3F F0   '..` B.?.'
  can0  RX - -  260   [4]  C8 C8 7D 00               '..}.'
  can0  RX - -  002   [5]  00 00 00 07 70            '....p'
  can0  RX - -  245   [8]  7F E8 02 18 A5 00 7F E1   '........'
  can0  RX - -  292   [8]  7E C8 00 80 60 00 00 01   '~...`...'
  can0  RX - -  2DE   [8]  00 00 00 00 00 00 08 34   '.......4'
  can0  RX - -  1C3   [8]  00 00 00 00 64 01 FF 28   '....d..('
  can0  RX - -  4CB   [8]  20 20 00 00 00 00 00 00   '  ......'
  can0  RX - -  1CB   [7]  00 00 00 00 10 00 46      '......F'
  can0  RX - -  1CC   [4]  00 00 05 41               '...A'
  can0  RX - -  2AA   [8]  00 08 83 E8 00 00 02 21   '.......!'
  can0  RX - -  2B0   [8]  00 0F FF 8C 1B 00 DE 00   '........'
  can0  RX - -  351   [8]  00 00 00 00 00 02 42 02   '......B.'
  can0  RX - -  2B1   [8]  01 00 51 00 00 00 00 00   '..Q.....'
  can0  RX - -  180   [8]  00 00 00 00 00 00 26 00   '......&.'
  can0  RX - -  174   [8]  00 00 00 AA 06 00 00 00   '........'
  can0  RX - -  176   [7]  00 00 00 00 00 00 06      '.......'
  can0  RX - -  1D5   [5]  00 00 00 02 D8            '.....'
  can0  RX - -  1D6   [8]  00 00 00 00 00 41 00 2B   '.....A.+'
  can0  RX - -  002   [5]  00 00 00 07 61            '....a'
  can0  RX - -  55B   [8]  F1 C0 55 00 EB 80 10 75   '..U....u'
  can0  RX - -  5BC   [8]  55 80 F0 64 B7 00 1F FF   'U..d....'
  can0  RX - -  284   [8]  00 00 00 00 00 00 A5 2B   '.......+'
  can0  RX - -  285   [8]  00 00 00 00 00 00 A5 2C   '.......,'
  can0  RX - -  215   [6]  FF F0 FF 00 FF FF         '......'
  can0  RX - -  354   [8]  00 00 00 00 00 18 00 00   '........'
  can0  RX - -  216   [2]  42 64                     'Bd'
  can0  RX - -  280   [8]  03 FF C0 00 00 00 FF C0   '........'
  can0  RX - -  1C3   [8]  00 00 00 00 64 02 FF 29   '....d..)'
  can0  RX - -  2DE   [8]  00 00 00 00 00 00 08 34   '.......4'
  can0  RX - -  2B0   [8]  00 0F FF 8C 1B 00 EE 00   '........'
  can0  RX - -  1CB   [7]  00 00 00 00 10 01 C3      '.......'
  can0  RX - -  1CC   [4]  00 00 05 50               '...P'
  can0  RX - -  355   [8]  00 00 00 00 00 00 40 00   '......@.'
  can0  RX - -  300   [1]  00                        '.'
  can0  RX - -  02A   [6]  00 00 00 00 00 08         '......'
  can0  RX - -  180   [8]  00 00 00 00 00 00 27 00   '......'.'
  can0  RX - -  174   [8]  00 00 00 AA 07 00 00 00   '........'
  can0  RX - -  176   [7]  00 00 00 00 00 00 07      '.......'
  can0  RX - -  1D5   [5]  00 00 00 03 D9            '.....'
  can0  RX - -  1D6   [8]  00 00 00 00 00 41 00 3C   '.....A.<'
  can0  RX - -  239   [8]  00 FF 60 20 43 00 3F F0   '..` C.?.'
  can0  RX - -  260   [4]  C8 C8 7D 00               '..}.'
  can0  RX - -  421   [3]  08 00 00                  '...'
  can0  RX - -  002   [5]  00 00 00 07 52            '....R'
  can0  RX - -  5C0   [8]  40 7A 7C 00 A2 04 1F 00   '@z|.....'
  can0  RX - -  245   [8]  7F E8 02 18 A6 00 7F E2   '........'
  can0  RX - -  292   [8]  7E C8 00 80 60 00 00 02   '~...`...'
  can0  RX - -  1C3   [8]  00 00 00 00 64 03 FF 2A   '....d..*'
  can0  RX - -  2B0   [8]  00 0F FF 8C 1B 00 FE 00   '........'
  can0  RX - -  2B1   [8]  01 00 51 00 00 00 00 00   '..Q.....'
  can0  RX - -  1CB   [7]  00 00 00 00 10 02 C9      '.......'
  can0  RX - -  1CC   [4]  00 00 05 63               '...c'
  can0  RX - -  2AA   [8]  00 08 83 E8 00 00 03 22   '......."'
  can0  RX - -  2DE   [8]  00 00 00 00 00 00 08 34   '.......4'
  can0  RX - -  180   [8]  00 00 00 00 00 00 28 00   '......(.'
  can0  RX - -  174   [8]  00 00 00 AA 08 00 00 00   '........'
  can0  RX - -  176   [7]  00 00 00 00 00 00 08      '.......'
  can0  RX - -  1D5   [5]  00 00 00 00 D6            '.....'
  can0  RX - -  1D6   [8]  00 00 00 00 00 41 00 09   '.....A..'
