---

candump  -a -d -e -x can0  | grep -B1 RX >> can_logs/test_bf_custom_mode_22.log

for i in range(0x640):
    msg = can_xchg(bus, 0x7df, [0x3, 0x22, i & 0xff, i >> 8 & 0xff, i >> 16, 0, 0, 0])

---
  can0  TX - -  7DF   [8]  03 22 01 00 00 00 00 00   '."......'
  can0  RX - -  7E8   [8]  04 62 01 00 00 AA AA AA   '.b......'
--
  can0  TX - -  7DF   [8]  03 22 06 00 00 00 00 00   '."......'
  can0  RX - -  7E8   [8]  10 0D 62 06 00 00 11 00   '..b.....'
--
  can0  TX - -  7DF   [8]  03 22 F4 00 00 00 00 00   '."......'
  can0  RX - -  7E8   [8]  07 62 F4 00 BE 3E B8 13   '.b...>..'
--
  can0  TX - -  7DF   [8]  03 22 F6 00 00 00 00 00   '."......'
  can0  RX - -  7E8   [8]  07 62 F6 00 C0 00 00 01   '.b......'
--
  can0  TX - -  7DF   [8]  03 22 F8 00 00 00 00 00   '."......'
  can0  RX - -  7E8   [8]  07 62 F8 00 55 40 00 00   '.b..U@..'
--
  can0  TX - -  7DF   [8]  03 22 06 01 00 00 00 00   '."......'
  can0  RX - -  7E8   [8]  04 62 06 01 0A AA AA AA   '.b......'
--
  can0  TX - -  7DF   [8]  03 22 12 01 00 00 00 00   '."......'
  can0  RX - -  7E8   [8]  05 62 12 01 00 00 AA AA   '.b......'
--
  can0  TX - -  7DF   [8]  03 22 20 01 00 00 00 00   '." .....'
  can0  RX - -  7E8   [8]  04 62 20 01 00 AA AA AA   '.b .....'
--
  can0  TX - -  7DF   [8]  03 22 F4 01 00 00 00 00   '."......'
  can0  RX - -  7E8   [8]  07 62 F4 01 00 07 65 00   '.b....e.'
--
  can0  TX - -  7DF   [8]  03 22 F6 01 00 00 00 00   '."......'
  can0  RX - -  7E8   [8]  10 0B 62 F6 01 05 05 39   '..b....9'
--
  can0  TX - -  7DF   [8]  03 22 01 02 00 00 00 00   '."......'
  can0  RX - -  7E8   [8]  04 62 01 02 00 AA AA AA   '.b......'
--
  can0  TX - -  7DF   [8]  03 22 09 02 00 00 00 00   '."......'
  can0  RX - -  7E8   [8]  04 62 09 02 00 AA AA AA   '.b......'
--
  can0  TX - -  7DF   [8]  03 22 12 02 00 00 00 00   '."......'
  can0  RX - -  7E8   [8]  05 62 12 02 A3 C0 AA AA   '.b......'
--
  can0  TX - -  7DF   [8]  03 22 20 02 00 00 00 00   '." .....'
  can0  RX - -  7E8   [8]  05 62 20 02 01 C9 AA AA   '.b .....'
--
  can0  TX - -  7DF   [8]  03 22 F6 02 00 00 00 00   '."......'
  can0  RX - -  7E8   [8]  10 26 62 F6 02 05 05 05   '.&b.....'
--
  can0  TX - -  7DF   [8]  03 22 F8 02 00 00 00 00   '."......'
  can0  RX - -  7E8   [8]  10 15 62 F8 02 01 57 56   '..b...WV'
--
  can0  TX - -  7DF   [8]  03 22 01 03 00 00 00 00   '."......'
  can0  RX - -  7E8   [8]  04 62 01 03 00 AA AA AA   '.b......'
--
  can0  TX - -  7DF   [8]  03 22 09 03 00 00 00 00   '."......'
  can0  RX - -  7E8   [8]  05 62 09 03 09 C4 AA AA   '.b......'
--
  can0  TX - -  7DF   [8]  03 22 F4 03 00 00 00 00   '."......'
  can0  RX - -  7E8   [8]  05 62 F4 03 02 00 AA AA   '.b......'
--
  can0  TX - -  7DF   [8]  03 22 01 04 00 00 00 00   '."......'
  can0  RX - -  7E8   [8]  05 62 01 04 00 00 AA AA   '.b......'
--
  can0  TX - -  7DF   [8]  03 22 09 04 00 00 00 00   '."......'
  can0  RX - -  7E8   [8]  05 62 09 04 09 C4 AA AA   '.b......'
--
  can0  TX - -  7DF   [8]  03 22 20 04 00 00 00 00   '." .....'
  can0  RX - -  7E8   [8]  04 62 20 04 6D AA AA AA   '.b .m...'
--
  can0  TX - -  7DF   [8]  03 22 29 04 00 00 00 00   '.").....'
  can0  RX - -  7E8   [8]  05 62 29 04 00 00 AA AA   '.b).....'
--
  can0  TX - -  7DF   [8]  03 22 F4 04 00 00 00 00   '."......'
  can0  RX - -  7E8   [8]  04 62 F4 04 28 AA AA AA   '.b..(...'
--
  can0  TX - -  7DF   [8]  03 22 F8 04 00 00 00 00   '."......'
  can0  RX - -  7E8   [8]  10 14 62 F8 04 01 30 33   '..b...03'
--
  can0  TX - -  7DF   [8]  03 22 01 05 00 00 00 00   '."......'
  can0  RX - -  7E8   [8]  05 62 01 05 00 00 AA AA   '.b......'
--
  can0  TX - -  7DF   [8]  03 22 04 05 00 00 00 00   '."......'
  can0  RX - -  7E8   [8]  04 62 04 05 00 AA AA AA   '.b......'
--
  can0  TX - -  7DF   [8]  03 22 20 05 00 00 00 00   '." .....'
  can0  RX - -  7E8   [8]  05 62 20 05 00 00 AA AA   '.b .....'
--
  can0  TX - -  7DF   [8]  03 22 F4 05 00 00 00 00   '."......'
  can0  RX - -  7E8   [8]  04 62 F4 05 87 AA AA AA   '.b......'
--
  can0  TX - -  7DF   [8]  03 22 01 06 00 00 00 00   '."......'
  can0  RX - -  7E8   [8]  04 62 01 06 00 AA AA AA   '.b......'
--
  can0  TX - -  7DF   [8]  03 22 20 06 00 00 00 00   '." .....'
  can0  RX - -  7E8   [8]  05 62 20 06 04 A0 AA AA   '.b .....'
--
