  can0  RX - -  43F   [8]  1A 7F FB 48 00 00 3F C0   '...H..?.'
  can0  RX - -  45B   [8]  04 00 00 00 00 00 2E 00   '........'
  can0  RX - -  215   [8]  27 10 27 10 27 10 27 10   ''.'.'.'.'
  can0  RX - -  40A   [8]  BF 13 00 00 00 00 00 00   '........'
  can0  RX - -  228   [8]  01 20 01 F4 00 F0 00 00   '. ......'
  can0  RX - -  09E   [8]  40 00 00 40 00 00 00 00   '@..@....'
  can0  RX - -  215   [8]  27 10 27 10 27 10 27 10   ''.'.'.'.'
  can0  RX - -  217   [8]  0E 0B 0E 08 00 00 D1 FB   '........'
  can0  RX - -  45A   [8]  1E 8E 73 FF FF FF FF FF   '..s.....'
  can0  RX - -  45C   [8]  F0 00 FF FF FF FF 00 00   '........'
  can0  RX - -  09F   [8]  70 64 02 10 C1 93 40 00   'pd....@.'
  can0  RX - -  215   [8]  27 10 27 10 27 10 27 10   ''.'.'.'.'
  can0  RX - -  228   [8]  01 20 01 F4 00 F0 00 00   '. ......'
  can0  RX - -  436   [8]  08 00 00 24 00 00 00 00   '...$....'
  can0  RX - -  215   [8]  27 10 27 10 27 10 27 10   ''.'.'.'.'
  can0  RX - -  217   [8]  0E 0B 0E 08 00 00 D2 FA   '........'
  can0  RX - -  215   [8]  27 10 27 10 27 10 27 10   ''.'.'.'.'
  can0  RX - -  09A   [8]  00 C0 00 C0 88 00 00 00   '........'
  can0  RX - -  43F   [8]  1A 7F FB 48 00 00 3F C0   '...H..?.'
  can0  RX - -  45A   [8]  1E 8E 73 FF FF FF FF FF   '..s.....'
  can0  RX - -  228   [8]  01 20 01 F4 00 F0 00 00   '. ......'
  can0  RX - -  45B   [8]  05 00 00 FF FF 00 00 00   '........'
  can0  RX - -  45C   [8]  F0 00 FF FF FF FF 00 00   '........'
  can0  RX - -  48B   [8]  00 02 88 00 24 00 00 00   '....$...'
  can0  RX - -  050   [8]  01 00 00 02 AA 55 AA FD   '.....U..'
  can0  RX - -  091   [8]  C0 40 C0 08 37 00 32 00   '.@..7.2.'
  can0  RX - -  274   [8]  01 00 00 41 00 04 02 00   '...A....'
  can0  RX - -  482   [8]  00 10 00 00 00 00 00 00   '........'
  can0  RX - -  215   [8]  27 10 27 10 27 10 27 10   ''.'.'.'.'
  can0  RX - -  217   [8]  0E 0B 0E 08 00 00 D3 F9   '........'
  can0  RX - -  40A   [8]  C0 00 11 88 4A E7 04 31   '....J..1'
  can0  RX - -  215   [8]  27 10 27 10 27 10 27 10   ''.'.'.'.'
  can0  RX - -  228   [8]  01 20 01 F4 00 F0 00 00   '. ......'
  can0  RX - -  215   [8]  27 10 27 10 27 10 27 10   ''.'.'.'.'
  can0  RX - -  217   [8]  0E 0B 0E 08 00 00 D4 F8   '........'
  can0  RX - -  45A   [8]  1E 8E 73 FF FF FF FF FF   '..s.....'
  can0  RX - -  45C   [8]  F0 00 FF FF FF FF 00 00   '........'
  can0  RX - -  4F3   [8]  03 8C 00 70 02 66 00 60   '...p.f.`'
  can0  RX - -  215   [8]  27 10 27 10 27 10 27 10   ''.'.'.'.'
  can0  RX - -  228   [8]  01 20 01 F4 00 F0 00 00   '. ......'
  can0  RX - -  215   [8]  27 10 27 10 27 10 27 10   ''.'.'.'.'
  can0  RX - -  217   [8]  0E 0B 0E 08 00 00 D5 F7   '........'
  can0  RX - -  43F   [8]  1A 7F FB 48 00 00 3F C0   '...H..?.'
  can0  RX - -  45B   [8]  01 FF FF 00 00 00 2E 00   '........'
  can0  RX - -  215   [8]  27 10 27 10 27 10 27 10   ''.'.'.'.'
  can0  RX - -  45A   [8]  1E 8E 73 FF FF FF FF FF   '..s.....'
  can0  RX - -  45C   [8]  F0 00 FF FF FF FF 00 00   '........'
  can0  RX - -  40A   [8]  C0 01 00 00 8E B8 00 FF   '........'
  can0  RX - -  228   [8]  01 20 01 F4 00 F0 00 00   '. ......'
  can0  RX - -  09E   [8]  40 00 00 40 00 00 00 00   '@..@....'
  can0  RX - -  215   [8]  27 10 27 10 27 10 27 10   ''.'.'.'.'
  can0  RX - -  217   [8]  0E 0B 0E 08 00 00 D6 F6   '........'
  can0  RX - -  215   [8]  27 10 27 10 27 10 27 10   ''.'.'.'.'
  can0  RX - -  228   [8]  01 20 01 F4 00 F0 00 00   '. ......'
  can0  RX - -  436   [8]  08 00 00 24 00 00 00 00   '...$....'
  can0  RX - -  215   [8]  27 10 27 10 27 10 27 10   ''.'.'.'.'
  can0  RX - -  217   [8]  0E 0B 0E 08 00 00 D7 F5   '........'
  can0  RX - -  45A   [8]  1E 8E 73 FF FF FF FF FF   '..s.....'
  can0  RX - -  45C   [8]  F0 00 FF FF FF FF 00 00   '........'
  can0  RX - -  215   [8]  27 10 27 10 27 10 27 10   ''.'.'.'.'
  can0  RX - -  09A   [8]  00 C0 00 C0 88 00 00 00   '........'
  can0  RX - -  43F   [8]  1A 7F FB 48 00 00 3F C0   '...H..?.'
  can0  RX - -  45B   [8]  02 00 FF FF FF FF FF FF   '........'
  can0  RX - -  228   [8]  01 20 01 F4 00 F0 00 00   '. ......'
  can0  RX - -  48B   [8]  00 02 88 00 24 00 00 00   '....$...'
  can0  RX - -  050   [8]  01 00 00 02 AA 55 AA FD   '.....U..'
  can0  RX - -  091   [8]  C0 40 C0 09 36 00 32 00   '.@..6.2.'
  can0  RX - -  274   [8]  01 00 00 41 00 04 02 00   '...A....'
  can0  RX - -  482   [8]  00 10 00 00 00 00 00 00   '........'
  can0  RX - -  215   [8]  27 10 27 10 27 10 27 10   ''.'.'.'.'
  can0  RX - -  217   [8]  0E 0B 0E 08 00 00 D8 F4   '........'
  can0  RX - -  40A   [8]  BF 00 03 FF 00 00 FE 00   '........'
  can0  RX - -  215   [8]  27 10 27 10 27 10 27 10   ''.'.'.'.'
  can0  RX - -  45A   [8]  1E 8E 73 FF FF FF FF FF   '..s.....'
  can0  RX - -  45C   [8]  F0 00 FF FF FF FF 00 00   '........'
  can0  RX - -  228   [8]  01 20 01 F4 00 F0 00 00   '. ......'
  can0  RX - -  215   [8]  27 10 27 10 27 10 27 10   ''.'.'.'.'
  can0  RX - -  217   [8]  0E 0B 0E 08 00 00 D9 F3   '........'
  can0  RX - -  4F3   [8]  03 8C 00 70 02 66 00 60   '...p.f.`'
  can0  RX - -  215   [8]  27 10 27 10 27 10 27 10   ''.'.'.'.'
  can0  RX - -  228   [8]  01 20 01 F4 00 F0 00 00   '. ......'
  can0  RX - -  215   [8]  27 10 27 10 27 10 27 10   ''.'.'.'.'
  can0  RX - -  217   [8]  0E 0B 0E 08 00 00 DA F2   '........'
  can0  RX - -  43F   [8]  1A 7F FB 48 00 00 3F C0   '...H..?.'
  can0  RX - -  45A   [8]  1E 8E 73 FF FF FF FF FF   '..s.....'
  can0  RX - -  45B   [8]  03 FF FF FF FF FF FF 00   '........'
  can0  RX - -  45C   [8]  F0 00 FF FF FF FF 00 00   '........'
  can0  RX - -  215   [8]  27 10 27 10 27 10 27 10   ''.'.'.'.'
  can0  RX - -  40A   [8]  BF 14 00 00 09 68 20 28   '.....h ('
  can0  RX - -  228   [8]  01 20 01 F4 00 F0 00 00   '. ......'
  can0  RX - -  09E   [8]  40 00 00 40 00 00 00 00   '@..@....'
  can0  RX - -  215   [8]  27 10 27 10 27 10 27 10   ''.'.'.'.'
  can0  RX - -  217   [8]  0E 0B 0E 08 00 00 DB F1   '........'
  can0  RX - -  09F   [8]  70 64 02 10 C1 93 40 00   'pd....@.'
  can0  RX - -  215   [8]  27 10 27 10 27 10 27 10   ''.'.'.'.'
  can0  RX - -  45A   [8]  1E 8E 73 FF FF FF FF FF   '..s.....'
  can0  RX - -  45C   [8]  F0 00 FF FF FF FF 00 00   '........'
  can0  RX - -  228   [8]  01 20 01 F4 00 F0 00 00   '. ......'
  can0  RX - -  436   [8]  08 00 00 24 00 00 00 00   '...$....'
  can0  RX - -  215   [8]  27 10 27 10 27 10 27 10   ''.'.'.'.'
  can0  RX - -  217   [8]  0E 0B 0E 08 00 00 DC F0   '........'
  can0  RX - -  215   [8]  27 10 27 10 27 10 27 10   ''.'.'.'.'
  can0  RX - -  09A   [8]  00 C0 00 C0 88 00 00 00   '........'
  can0  RX - -  43F   [8]  1A 7F FB 48 00 00 3F C0   '...H..?.'
  can0  RX - -  45B   [8]  04 00 00 00 00 00 2E 00   '........'
  can0  RX - -  228   [8]  01 20 01 F4 00 F0 00 00   '. ......'
  can0  RX - -  48B   [8]  00 02 88 00 24 00 00 00   '....$...'
  can0  RX - -  050   [8]  01 00 00 02 AA 55 AA FD   '.....U..'
  can0  RX - -  091   [8]  C0 40 C0 0A 35 00 32 00   '.@..5.2.'
  can0  RX - -  274   [8]  01 00 00 41 00 04 02 00   '...A....'
  can0  RX - -  482   [8]  00 10 00 00 00 00 00 00   '........'
  can0  RX - -  215   [8]  27 10 27 10 27 10 27 10   ''.'.'.'.'
  can0  RX - -  217   [8]  0E 0B 0E 08 00 00 DD EF   '........'
  can0  RX - -  45A   [8]  1E 8E 73 FF FF FF FF FF   '..s.....'
  can0  RX - -  45C   [8]  F0 00 FF FF FF FF 00 00   '........'
  can0  RX - -  40A   [8]  BF 15 00 00 00 26 40 00   '.....&@.'
  can0  RX - -  215   [8]  27 10 27 10 27 10 27 10   ''.'.'.'.'
  can0  RX - -  228   [8]  01 20 01 F4 00 F0 00 00   '. ......'
  can0  RX - -  215   [8]  27 10 27 10 27 10 27 10   ''.'.'.'.'
  can0  RX - -  217   [8]  0E 0B 0E 08 00 00 DE EE   '........'
  can0  RX - -  4F3   [8]  03 8C 00 70 02 66 00 60   '...p.f.`'
  can0  RX - -  215   [8]  27 10 27 10 27 10 27 10   ''.'.'.'.'
  can0  RX - -  45A   [8]  1E 8E 73 FF FF FF FF FF   '..s.....'
  can0  RX - -  45C   [8]  F0 00 FF FF FF FF 00 00   '........'
  can0  RX - -  228   [8]  01 20 01 F4 00 F0 00 00   '. ......'
  can0  RX - -  215   [8]  27 10 27 10 27 10 27 10   ''.'.'.'.'
  can0  RX - -  217   [8]  0E 0B 0E 08 00 00 DF ED   '........'
  can0  RX - -  43F   [8]  1A 7F FB 48 00 00 3F C0   '...H..?.'
  can0  RX - -  45B   [8]  05 00 00 FF FF 00 00 00   '........'
  can0  RX - -  215   [8]  27 10 27 10 27 10 27 10   ''.'.'.'.'
  can0  RX - -  40A   [8]  BF 16 50 24 65 00 00 00   '..P$e...'
  can0  RX - -  228   [8]  01 20 01 F4 00 F0 00 00   '. ......'
  can0  RX - -  09E   [8]  40 00 00 40 00 00 00 00   '@..@....'
  can0  RX - -  215   [8]  27 10 27 10 27 10 27 10   ''.'.'.'.'
  can0  RX - -  217   [8]  0E 0B 0E 08 00 00 D0 FC   '........'
  can0  RX - -  45A   [8]  1E 8E 73 FF FF FF FF FF   '..s.....'
  can0  RX - -  45C   [8]  F0 00 FF FF FF FF 00 00   '........'
  can0  RX - -  215   [8]  27 10 27 10 27 10 27 10   ''.'.'.'.'
  can0  RX - -  228   [8]  01 20 01 F4 00 F0 00 00   '. ......'
  can0  RX - -  436   [8]  08 00 00 24 00 00 00 00   '...$....'
  can0  RX - -  215   [8]  27 10 27 10 27 10 27 10   ''.'.'.'.'
  can0  RX - -  217   [8]  0E 0B 0E 08 00 00 D1 FB   '........'
  can0  RX - -  215   [8]  27 10 27 10 27 10 27 10   ''.'.'.'.'
  can0  RX - -  09A   [8]  00 C0 00 C0 88 00 00 00   '........'
  can0  RX - -  09B   [8]  20 00 00 00 20 00 00 00   ' ... ...'
  can0  RX - -  43D   [8]  80 10 80 40 08 00 00 0F   '...@....'
  can0  RX - -  228   [8]  01 20 01 F4 00 F0 00 00   '. ......'
  can0  RX - -  43E   [8]  00 00 00 60 E0 40 08 20   '...`.@. '
  can0  RX - -  43F   [8]  1A 7F FB 48 00 00 3F C0   '...H..?.'
  can0  RX - -  45A   [8]  1E 8E 73 FF FF FF FF FF   '..s.....'
  can0  RX - -  45B   [8]  01 FF FF 00 00 00 2E 00   '........'
  can0  RX - -  050   [8]  01 00 00 02 AA 55 AA FD   '.....U..'
  can0  RX - -  091   [8]  C0 40 C0 0B 34 00 32 00   '.@..4.2.'
  can0  RX - -  45C   [8]  F0 00 FF FF FF FF 00 00   '........'
  can0  RX - -  274   [8]  01 00 00 41 00 04 02 00   '...A....'
  can0  RX - -  482   [8]  00 10 00 00 00 00 00 00   '........'
  can0  RX - -  215   [8]  27 10 27 10 27 10 27 10   ''.'.'.'.'
  can0  RX - -  217   [8]  0E 0B 0E 08 00 00 D2 FA   '........'
  can0  RX - -  48B   [8]  00 02 88 00 24 00 00 00   '....$...'
  can0  RX - -  40A   [8]  BF 17 04 22 40 00 00 00   '..."@...'
  can0  RX - -  215   [8]  27 10 27 10 27 10 27 10   ''.'.'.'.'
  can0  RX - -  228   [8]  01 20 01 F4 00 F0 00 00   '. ......'
  can0  RX - -  215   [8]  27 10 27 10 27 10 27 10   ''.'.'.'.'
  can0  RX - -  217   [8]  0E 0B 0E 08 00 00 D3 F9   '........'
  can0  RX - -  45A   [8]  1E 8E 73 FF FF FF FF FF   '..s.....'
  can0  RX - -  45C   [8]  F0 00 FF FF FF FF 00 00   '........'
  can0  RX - -  4F3   [8]  03 8C 00 70 02 66 00 60   '...p.f.`'
  can0  RX - -  215   [8]  27 10 27 10 27 10 27 10   ''.'.'.'.'
  can0  RX - -  228   [8]  01 20 01 F4 00 F0 00 00   '. ......'
  can0  RX - -  215   [8]  27 10 27 10 27 10 27 10   ''.'.'.'.'
  can0  RX - -  217   [8]  0E 0B 0E 08 00 00 D4 F8   '........'
  can0  RX - -  43F   [8]  1A 7F FB 48 00 00 3F C0   '...H..?.'
  can0  RX - -  45B   [8]  02 00 FF FF FF FF FF FF   '........'
  can0  RX - -  215   [8]  27 10 27 10 27 10 27 10   ''.'.'.'.'
  can0  RX - -  45A   [8]  1E 8E 73 FF FF FF FF FF   '..s.....'
  can0  RX - -  45C   [8]  F0 00 FF FF FF FF 00 00   '........'
  can0  RX - -  40A   [8]  BF 18 00 00 00 00 00 00   '........'
  can0  RX - -  228   [8]  01 20 01 F4 00 F0 00 00   '. ......'
  can0  RX - -  09E   [8]  40 00 00 40 00 00 00 00   '@..@....'
  can0  RX - -  215   [8]  27 10 27 10 27 10 27 10   ''.'.'.'.'
  can0  RX - -  217   [8]  0E 0B 0E 08 00 00 D5 F7   '........'
  can0  RX - -  09F   [8]  70 64 02 10 C1 93 40 00   'pd....@.'
  can0  RX - -  215   [8]  27 10 27 10 27 10 27 10   ''.'.'.'.'
  can0  RX - -  228   [8]  01 20 01 F4 00 F0 00 00   '. ......'
  can0  RX - -  436   [8]  08 00 00 24 00 00 00 00   '...$....'
  can0  RX - -  215   [8]  27 10 27 10 27 10 27 10   ''.'.'.'.'
  can0  RX - -  217   [8]  0E 0B 0E 08 00 00 D6 F6   '........'
  can0  RX - -  45A   [8]  1E 8E 73 FF FF FF FF FF   '..s.....'
  can0  RX - -  45C   [8]  F0 00 FF FF FF FF 00 00   '........'
  can0  RX - -  215   [8]  27 10 27 10 27 10 27 10   ''.'.'.'.'
  can0  RX - -  09A   [8]  00 C0 00 C0 88 00 00 00   '........'
  can0  RX - -  43F   [8]  1A 7F FB 48 00 00 3F C0   '...H..?.'
  can0  RX - -  45B   [8]  03 FF FF FF FF FF FF 00   '........'
  can0  RX - -  228   [8]  01 20 01 F4 00 F0 00 00   '. ......'
  can0  RX - -  48B   [8]  00 02 88 00 24 00 00 00   '....$...'
  can0  RX - -  050   [8]  01 00 00 02 AA 55 AA FD   '.....U..'
  can0  RX - -  091   [8]  C0 40 C0 0C 33 00 32 00   '.@..3.2.'
  can0  RX - -  274   [8]  01 00 00 41 00 04 02 00   '...A....'
  can0  RX - -  482   [8]  00 10 00 00 00 00 00 00   '........'
  can0  RX - -  215   [8]  27 10 27 10 27 10 27 10   ''.'.'.'.'
  can0  RX - -  217   [8]  0E 0B 0E 08 00 00 D7 F5   '........'
  can0  RX - -  40A   [8]  BF 19 00 00 00 00 00 00   '........'
  can0  RX - -  215   [8]  27 10 27 10 27 10 27 10   ''.'.'.'.'
  can0  RX - -  45A   [8]  1E 8E 73 FF FF FF FF FF   '..s.....'
  can0  RX - -  45C   [8]  F0 00 FF FF FF FF 00 00   '........'
  can0  RX - -  228   [8]  01 20 01 F4 00 F0 00 00   '. ......'
  can0  RX - -  215   [8]  27 10 27 10 27 10 27 10   ''.'.'.'.'
  can0  RX - -  217   [8]  0E 0B 0E 08 00 00 D8 F4   '........'
  can0  RX - -  4F3   [8]  03 8C 00 70 02 66 00 60   '...p.f.`'
  can0  RX - -  215   [8]  27 10 27 10 27 10 27 10   ''.'.'.'.'
  can0  RX - -  228   [8]  01 20 01 F4 00 F0 00 00   '. ......'
  can0  RX - -  215   [8]  27 10 27 10 27 10 27 10   ''.'.'.'.'
  can0  RX - -  217   [8]  0E 0B 0E 08 00 00 D9 F3   '........'
  can0  RX - -  43F   [8]  1A 7F FB 48 00 00 3F C0   '...H..?.'
  can0  RX - -  45A   [8]  1E 8E 73 FF FF FF FF FF   '..s.....'
  can0  RX - -  45B   [8]  04 00 00 00 00 00 2E 00   '........'
  can0  RX - -  45C   [8]  F0 00 FF FF FF FF 00 00   '........'
  can0  RX - -  215   [8]  27 10 27 10 27 10 27 10   ''.'.'.'.'
  can0  RX - -  40A   [8]  BF 1A 00 00 00 00 00 00   '........'
  can0  RX - -  228   [8]  01 20 01 F4 00 F0 00 00   '. ......'
  can0  RX - -  09E   [8]  40 00 00 40 00 00 00 00   '@..@....'
  can0  RX - -  215   [8]  27 10 27 10 27 10 27 10   ''.'.'.'.'
  can0  RX - -  217   [8]  0E 0B 0E 08 00 00 DA F2   '........'
  can0  RX - -  215   [8]  27 10 27 10 27 10 27 10   ''.'.'.'.'
  can0  RX - -  45A   [8]  1E 8E 73 FF FF FF FF FF   '..s.....'
  can0  RX - -  45C   [8]  F0 00 FF FF FF FF 00 00   '........'
  can0  RX - -  228   [8]  01 20 01 F4 00 F0 00 00   '. ......'
  can0  RX - -  436   [8]  08 00 00 24 00 00 00 00   '...$....'
  can0  RX - -  215   [8]  27 10 27 10 27 10 27 10   ''.'.'.'.'
  can0  RX - -  217   [8]  0E 0B 0E 08 00 00 DB F1   '........'
  can0  RX - -  215   [8]  27 10 27 10 27 10 27 10   ''.'.'.'.'
  can0  RX - -  09A   [8]  00 C0 00 C0 88 00 00 00   '........'
  can0  RX - -  43F   [8]  1A 7F FB 48 00 00 3F C0   '...H..?.'
  can0  RX - -  45B   [8]  05 00 00 FF FF 00 00 00   '........'
  can0  RX - -  228   [8]  01 20 01 F4 00 F0 00 00   '. ......'
  can0  RX - -  48B   [8]  00 02 88 00 24 00 00 00   '....$...'
  can0  RX - -  050   [8]  01 00 00 02 AA 55 AA FD   '.....U..'
  can0  RX - -  091   [8]  C0 40 C0 0D 32 00 32 00   '.@..2.2.'
  can0  RX - -  274   [8]  01 00 00 41 00 04 02 00   '...A....'
  can0  RX - -  482   [8]  00 10 00 00 00 00 00 00   '........'
  can0  RX - -  215   [8]  27 10 27 10 27 10 27 10   ''.'.'.'.'
  can0  RX - -  217   [8]  0E 0B 0E 08 00 00 DC F0   '........'
  can0  RX - -  45A   [8]  1E 8E 73 FF FF FF FF FF   '..s.....'
  can0  RX - -  45C   [8]  F0 00 FF FF FF FF 00 00   '........'
  can0  RX - -  40A   [8]  BF 1B 00 00 00 00 00 00   '........'
  can0  RX - -  215   [8]  27 10 27 10 27 10 27 10   ''.'.'.'.'
  can0  RX - -  228   [8]  01 20 01 F4 00 F0 00 00   '. ......'
  can0  RX - -  215   [8]  27 10 27 10 27 10 27 10   ''.'.'.'.'
  can0  RX - -  217   [8]  0E 0B 0E 08 00 00 DD EF   '........'
  can0  RX - -  4F3   [8]  03 8C 00 70 02 66 00 60   '...p.f.`'
  can0  RX - -  215   [8]  27 10 27 10 27 10 27 10   ''.'.'.'.'
  can0  RX - -  45A   [8]  1E 8E 73 FF FF FF FF FF   '..s.....'
  can0  RX - -  45C   [8]  F0 00 FF FF FF FF 00 00   '........'
  can0  RX - -  228   [8]  01 20 01 F4 00 F0 00 00   '. ......'
  can0  RX - -  215   [8]  27 10 27 10 27 10 27 10   ''.'.'.'.'
  can0  RX - -  217   [8]  0E 0B 0E 08 00 00 DE EE   '........'
  can0  RX - -  43F   [8]  1A 7F FB 48 00 00 3F C0   '...H..?.'
  can0  RX - -  45B   [8]  01 FF FF 00 00 00 2E 00   '........'
  can0  RX - -  215   [8]  27 10 27 10 27 10 27 10   ''.'.'.'.'
  can0  RX - -  40A   [8]  BF 1C 00 00 00 00 00 00   '........'
  can0  RX - -  228   [8]  01 20 01 F4 00 F0 00 00   '. ......'
  can0  RX - -  09E   [8]  40 00 00 40 00 00 00 00   '@..@....'
  can0  RX - -  215   [8]  27 10 27 10 27 10 27 10   ''.'.'.'.'
  can0  RX - -  217   [8]  0E 0B 0E 08 00 00 DF ED   '........'
  can0  RX - -  45A   [8]  1E 8E 73 FF FF FF FF FF   '..s.....'
  can0  RX - -  45C   [8]  F0 00 FF FF FF FF 00 00   '........'
  can0  RX - -  09F   [8]  70 64 02 10 C1 93 40 00   'pd....@.'
  can0  RX - -  215   [8]  27 10 27 10 27 10 27 10   ''.'.'.'.'
  can0  RX - -  228   [8]  01 20 01 F4 00 F0 00 00   '. ......'
  can0  RX - -  436   [8]  08 00 00 24 00 00 00 00   '...$....'
  can0  RX - -  215   [8]  27 10 27 10 27 10 27 10   ''.'.'.'.'
  can0  RX - -  217   [8]  0E 0B 0E 08 00 00 D0 FC   '........'
  can0  RX - -  215   [8]  27 10 27 10 27 10 27 10   ''.'.'.'.'
  can0  RX - -  09A   [8]  00 C0 00 C0 88 00 00 00   '........'
  can0  RX - -  43F   [8]  1A 7F FB 48 00 00 3F C0   '...H..?.'
  can0  RX - -  45A   [8]  1E 8E 73 FF FF FF FF FF   '..s.....'
  can0  RX - -  228   [8]  01 20 01 F4 00 F0 00 00   '. ......'
  can0  RX - -  45B   [8]  02 00 FF FF FF FF FF FF   '........'
  can0  RX - -  45C   [8]  F0 00 FF FF FF FF 00 00   '........'
  can0  RX - -  48B   [8]  00 02 88 00 24 00 00 00   '....$...'
  can0  RX - -  050   [8]  01 00 00 02 AA 55 AA FD   '.....U..'
  can0  RX - -  091   [8]  C0 40 C0 0E 31 00 32 00   '.@..1.2.'
  can0  RX - -  274   [8]  01 00 00 41 00 04 02 00   '...A....'
  can0  RX - -  482   [8]  00 10 00 00 00 00 00 00   '........'
  can0  RX - -  215   [8]  27 10 27 10 27 10 27 10   ''.'.'.'.'
  can0  RX - -  217   [8]  0E 0B 0E 08 00 00 D1 FB   '........'
  can0  RX - -  40A   [8]  BF 1D 00 00 00 00 00 00   '........'
  can0  RX - -  215   [8]  27 10 27 10 27 10 27 10   ''.'.'.'.'
  can0  RX - -  228   [8]  01 20 01 F4 00 F0 00 00   '. ......'
  can0  RX - -  215   [8]  27 10 27 10 27 10 27 10   ''.'.'.'.'
  can0  RX - -  217   [8]  0E 0B 0E 08 00 00 D2 FA   '........'
  can0  RX - -  45A   [8]  1E 8E 73 FF FF FF FF FF   '..s.....'
  can0  RX - -  45C   [8]  F0 00 FF FF FF FF 00 00   '........'
  can0  RX - -  4F3   [8]  03 8C 00 70 02 66 00 60   '...p.f.`'
  can0  RX - -  215   [8]  27 10 27 10 27 10 27 10   ''.'.'.'.'
  can0  RX - -  228   [8]  01 20 01 F4 00 F0 00 00   '. ......'
  can0  RX - -  215   [8]  27 10 27 10 27 10 27 10   ''.'.'.'.'
  can0  RX - -  217   [8]  0E 0B 0E 08 00 00 D3 F9   '........'
  can0  RX - -  43F   [8]  1A 7F FB 48 00 00 3F C0   '...H..?.'
  can0  RX - -  45B   [8]  03 FF FF FF FF FF FF 00   '........'
  can0  RX - -  215   [8]  27 10 27 10 27 10 27 10   ''.'.'.'.'
  can0  RX - -  45A   [8]  1E 8E 73 FF FF FF FF FF   '..s.....'
  can0  RX - -  45C   [8]  F0 00 FF FF FF FF 00 00   '........'
  can0  RX - -  40A   [8]  BF 1E 00 00 00 00 00 00   '........'
  can0  RX - -  228   [8]  01 20 01 F4 00 F0 00 00   '. ......'
  can0  RX - -  09E   [8]  40 00 00 40 00 00 00 00   '@..@....'
  can0  RX - -  215   [8]  27 10 27 10 27 10 27 10   ''.'.'.'.'
  can0  RX - -  217   [8]  0E 0B 0E 08 00 00 D4 F8   '........'
  can0  RX - -  215   [8]  27 10 27 10 27 10 27 10   ''.'.'.'.'
  can0  RX - -  228   [8]  01 20 01 F4 00 F0 00 00   '. ......'
  can0  RX - -  436   [8]  08 00 00 24 00 00 00 00   '...$....'
  can0  RX - -  215   [8]  27 10 27 10 27 10 27 10   ''.'.'.'.'
  can0  RX - -  217   [8]  0E 0B 0E 08 00 00 D5 F7   '........'
  can0  RX - -  45A   [8]  1E 8E 73 FF FF FF FF FF   '..s.....'
  can0  RX - -  45C   [8]  F0 00 FF FF FF FF 00 00   '........'
  can0  RX - -  215   [8]  27 10 27 10 27 10 27 10   ''.'.'.'.'
  can0  RX - -  09A   [8]  00 C0 00 C0 88 00 00 00   '........'
  can0  RX - -  43F   [8]  1A 7F FB 48 00 00 3F C0   '...H..?.'
  can0  RX - -  45B   [8]  04 00 00 00 00 00 2E 00   '........'
  can0  RX - -  228   [8]  01 20 01 F4 00 F0 00 00   '. ......'
  can0  RX - -  48B   [8]  00 02 88 00 24 00 00 00   '....$...'
  can0  RX - -  050   [8]  01 00 00 02 AA 55 AA FD   '.....U..'
  can0  RX - -  091   [8]  C0 40 C0 0F 30 00 32 00   '.@..0.2.'
  can0  RX - -  274   [8]  01 00 00 41 00 04 02 00   '...A....'
  can0  RX - -  482   [8]  00 10 00 00 00 00 00 00   '........'
  can0  RX - -  215   [8]  27 10 27 10 27 10 27 10   ''.'.'.'.'
  can0  RX - -  217   [8]  0E 0B 0E 08 00 00 D6 F6   '........'
  can0  RX - -  40A   [8]  BF 1F 00 00 00 00 00 00   '........'
  can0  RX - -  215   [8]  27 10 27 10 27 10 27 10   ''.'.'.'.'
  can0  RX - -  45A   [8]  1E 8E 73 FF FF FF FF FF   '..s.....'
  can0  RX - -  45C   [8]  F0 00 FF FF FF FF 00 00   '........'
  can0  RX - -  228   [8]  01 20 01 F4 00 F0 00 00   '. ......'
  can0  RX - -  215   [8]  27 10 27 10 27 10 27 10   ''.'.'.'.'
  can0  RX - -  217   [8]  0E 0B 0E 08 00 00 D7 F5   '........'
  can0  RX - -  4F3   [8]  03 8C 00 70 02 66 00 60   '...p.f.`'
  can0  RX - -  215   [8]  27 10 27 10 27 10 27 10   ''.'.'.'.'
  can0  RX - -  228   [8]  01 20 01 F4 00 F0 00 00   '. ......'
  can0  RX - -  215   [8]  27 10 27 10 27 10 27 10   ''.'.'.'.'
  can0  RX - -  217   [8]  0E 0B 0E 08 00 00 D8 F4   '........'
  can0  RX - -  43F   [8]  1A 7F FB 48 00 00 3F C0   '...H..?.'
  can0  RX - -  45A   [8]  1E 8E 73 FF FF FF FF FF   '..s.....'
  can0  RX - -  45B   [8]  05 00 00 FF FF 00 00 00   '........'
  can0  RX - -  45C   [8]  F0 00 FF FF FF FF 00 00   '........'
  can0  RX - -  215   [8]  27 10 27 10 27 10 27 10   ''.'.'.'.'
  can0  RX - -  40A   [8]  BF 20 00 00 00 00 00 00   '. ......'
  can0  RX - -  228   [8]  01 20 01 F4 00 F0 00 00   '. ......'
  can0  RX - -  09E   [8]  40 00 00 40 00 00 00 00   '@..@....'
  can0  RX - -  215   [8]  27 10 27 10 27 10 27 10   ''.'.'.'.'
  can0  RX - -  217   [8]  0E 0B 0E 08 00 00 D9 F3   '........'
  can0  RX - -  09F   [8]  70 64 02 10 C1 93 40 00   'pd....@.'
  can0  RX - -  215   [8]  27 10 27 10 27 10 27 10   ''.'.'.'.'
  can0  RX - -  45A   [8]  1E 8E 73 FF FF FF FF FF   '..s.....'
  can0  RX - -  45C   [8]  F0 00 FF FF FF FF 00 00   '........'
  can0  RX - -  228   [8]  01 20 01 F4 00 F0 00 00   '. ......'
  can0  RX - -  436   [8]  08 00 00 24 00 00 00 00   '...$....'
  can0  RX - -  215   [8]  27 10 27 10 27 10 27 10   ''.'.'.'.'
  can0  RX - -  217   [8]  0E 0B 0E 08 00 00 DA F2   '........'
  can0  RX - -  581   [8]  01 00 AA 55 AA 55 AA 55   '...U.U.U'
  can0  RX - -  215   [8]  27 10 27 10 27 10 27 10   ''.'.'.'.'
  can0  RX - -  09A   [8]  00 C0 00 C0 88 00 00 00   '........'
  can0  RX - -  09B   [8]  20 00 00 00 20 00 00 00   ' ... ...'
  can0  RX - -  588   [8]  08 00 AA 55 AA 55 AA 55   '...U.U.U'
  can0  RX - -  43D   [8]  80 10 80 40 08 00 00 0F   '...@....'
  can0  RX - -  228   [8]  01 20 01 F4 00 F0 00 00   '. ......'
  can0  RX - -  43E   [8]  00 00 00 60 E0 40 08 20   '...`.@. '
  can0  RX - -  43F   [8]  1A 7F FB 48 00 00 3F C0   '...H..?.'
  can0  RX - -  45B   [8]  01 FF FF 00 00 00 2E 00   '........'
  can0  RX - -  48B   [8]  00 02 88 00 24 00 00 00   '....$...'
  can0  RX - -  050   [8]  01 00 00 02 AA 55 AA FD   '.....U..'
  can0  RX - -  091   [8]  C0 40 C0 00 3F 00 32 00   '.@..?.2.'
  can0  RX - -  274   [8]  01 00 00 41 00 04 02 00   '...A....'
  can0  RX - -  482   [8]  00 10 00 00 00 00 00 00   '........'
  can0  RX - -  215   [8]  27 10 27 10 27 10 27 10   ''.'.'.'.'
  can0  RX - -  217   [8]  0E 0B 0E 08 00 00 DB F1   '........'
  can0  RX - -  45A   [8]  1E 8E 73 FF FF FF FF FF   '..s.....'
  can0  RX - -  45C   [8]  F0 00 FF FF FF FF 00 00   '........'
  can0  RX - -  40A   [8]  BF 21 00 00 00 00 00 00   '.!......'
  can0  RX - -  215   [8]  27 10 27 10 27 10 27 10   ''.'.'.'.'
  can0  RX - -  228   [8]  01 20 01 F4 00 F0 00 00   '. ......'
  can0  RX - -  215   [8]  27 10 27 10 27 10 27 10   ''.'.'.'.'
  can0  RX - -  217   [8]  0E 0B 0E 08 00 00 DC F0   '........'
  can0  RX - -  4F3   [8]  03 8C 00 70 02 66 00 60   '...p.f.`'
  can0  RX - -  215   [8]  27 10 27 10 27 10 27 10   ''.'.'.'.'
  can0  RX - -  45A   [8]  1E 8E 73 FF FF FF FF FF   '..s.....'
  can0  RX - -  45C   [8]  F0 00 FF FF FF FF 00 00   '........'
  can0  RX - -  228   [8]  01 20 01 F4 00 F0 00 00   '. ......'
  can0  RX - -  215   [8]  27 10 27 10 27 10 27 10   ''.'.'.'.'
  can0  RX - -  217   [8]  0E 0B 0E 08 00 00 DD EF   '........'
  can0  RX - -  43F   [8]  1A 7F FB 48 00 00 3F C0   '...H..?.'
  can0  RX - -  45B   [8]  02 00 FF FF FF FF FF FF   '........'
  can0  RX - -  215   [8]  27 10 27 10 27 10 27 10   ''.'.'.'.'
  can0  RX - -  40A   [8]  C1 00 44 4A 35 46 53 33   '..DJ5FS3'
  can0  RX - -  228   [8]  01 20 01 F4 00 F0 00 00   '. ......'
  can0  RX - -  09E   [8]  40 00 00 40 00 00 00 00   '@..@....'
  can0  RX - -  215   [8]  27 10 27 10 27 10 27 10   ''.'.'.'.'
  can0  RX - -  217   [8]  0E 0B 0E 08 00 00 DE EE   '........'
  can0  RX - -  45A   [8]  1E 8E 73 FF FF FF FF FF   '..s.....'
  can0  RX - -  45C   [8]  F0 00 FF FF FF FF 00 00   '........'
  can0  RX - -  215   [8]  27 10 27 10 27 10 27 10   ''.'.'.'.'
  can0  RX - -  228   [8]  01 20 01 F4 00 F0 00 00   '. ......'
  can0  RX - -  436   [8]  08 00 00 24 00 00 00 00   '...$....'
  can0  RX - -  215   [8]  27 10 27 10 27 10 27 10   ''.'.'.'.'
  can0  RX - -  217   [8]  0E 0B 0E 08 00 00 DF ED   '........'
  can0  RX - -  591   [8]  11 00 AA 55 AA 55 AA 55   '...U.U.U'
  can0  RX - -  215   [8]  27 10 27 10 27 10 27 10   ''.'.'.'.'
  can0  RX - -  09A   [8]  00 C0 00 C0 88 00 00 00   '........'
  can0  RX - -  43F   [8]  1A 7F FB 48 00 00 3F C0   '...H..?.'
  can0  RX - -  45A   [8]  1E 8E 73 FF FF FF FF FF   '..s.....'
  can0  RX - -  228   [8]  01 20 01 F4 00 F0 00 00   '. ......'
  can0  RX - -  45B   [8]  03 FF FF FF FF FF FF 00   '........'
  can0  RX - -  45C   [8]  F0 00 FF FF FF FF 00 00   '........'
  can0  RX - -  48B   [8]  00 02 88 00 24 00 00 00   '....$...'
  can0  RX - -  050   [8]  01 00 00 02 AA 55 AA FD   '.....U..'
  can0  RX - -  091   [8]  C0 40 C0 01 3E 00 32 00   '.@..>.2.'
  can0  RX - -  274   [8]  01 00 00 41 00 04 02 00   '...A....'
  can0  RX - -  482   [8]  00 10 00 00 00 00 00 00   '........'
  can0  RX - -  215   [8]  27 10 27 10 27 10 27 10   ''.'.'.'.'
  can0  RX - -  217   [8]  0E 0B 0E 08 00 00 D0 FC   '........'
  can0  RX - -  40A   [8]  C1 01 30 37 39 35 33 00   '..07953.'
  can0  RX - -  215   [8]  27 10 27 10 27 10 27 10   ''.'.'.'.'
  can0  RX - -  228   [8]  01 20 01 F4 00 F0 00 00   '. ......'
  can0  RX - -  215   [8]  27 10 27 10 27 10 27 10   ''.'.'.'.'
  can0  RX - -  217   [8]  0E 0B 0E 08 00 00 D1 FB   '........'
  can0  RX - -  45A   [8]  1E 8E 73 FF FF FF FF FF   '..s.....'
  can0  RX - -  45C   [8]  F0 00 FF FF FF FF 00 00   '........'
  can0  RX - -  4F3   [8]  03 8C 00 70 02 66 00 60   '...p.f.`'
  can0  RX - -  215   [8]  27 10 27 10 27 10 27 10   ''.'.'.'.'
  can0  RX - -  228   [8]  01 20 01 F4 00 F0 00 00   '. ......'
  can0  RX - -  215   [8]  27 10 27 10 27 10 27 10   ''.'.'.'.'
  can0  RX - -  217   [8]  0E 0B 0E 08 00 00 D2 FA   '........'
  can0  RX - -  43F   [8]  1A 7F FB 48 00 00 3F C0   '...H..?.'
  can0  RX - -  45B   [8]  04 00 00 00 00 00 2E 00   '........'
  can0  RX - -  215   [8]  27 10 27 10 27 10 27 10   ''.'.'.'.'
  can0  RX - -  45A   [8]  1E 8E 73 FF FF FF FF FF   '..s.....'
  can0  RX - -  45C   [8]  F0 00 FF FF FF FF 00 00   '........'
  can0  RX - -  40A   [8]  C1 02 00 00 00 00 00 00   '........'
  can0  RX - -  228   [8]  01 20 01 F4 00 F0 00 00   '. ......'
  can0  RX - -  09E   [8]  40 00 00 40 00 00 00 00   '@..@....'
  can0  RX - -  215   [8]  27 10 27 10 27 10 27 10   ''.'.'.'.'
  can0  RX - -  217   [8]  0E 0B 0E 08 00 00 D3 F9   '........'
  can0  RX - -  09F   [8]  70 64 02 10 C1 93 40 00   'pd....@.'
  can0  RX - -  215   [8]  27 10 27 10 27 10 27 10   ''.'.'.'.'
  can0  RX - -  228   [8]  01 20 01 F4 00 F0 00 00   '. ......'
  can0  RX - -  436   [8]  08 00 00 24 00 00 00 00   '...$....'
  can0  RX - -  215   [8]  27 10 27 10 27 10 27 10   ''.'.'.'.'
  can0  RX - -  217   [8]  0E 0B 0E 08 00 00 D4 F8   '........'
  can0  RX - -  45A   [8]  1E 8E 73 FF FF FF FF FF   '..s.....'
  can0  RX - -  45C   [8]  F0 00 FF FF FF FF 00 00   '........'
  can0  RX - -  215   [8]  27 10 27 10 27 10 27 10   ''.'.'.'.'
  can0  RX - -  09A   [8]  00 C0 00 C0 88 00 00 00   '........'
  can0  RX - -  43F   [8]  1A 7F FB 48 00 00 3F C0   '...H..?.'
  can0  RX - -  45B   [8]  05 00 00 FF FF 00 00 00   '........'
  can0  RX - -  228   [8]  01 20 01 F4 00 F0 00 00   '. ......'
  can0  RX - -  48B   [8]  00 02 88 00 24 00 00 00   '....$...'
  can0  RX - -  050   [8]  01 00 00 02 AA 55 AA FD   '.....U..'
  can0  RX - -  091   [8]  C0 40 C0 02 3D 00 32 00   '.@..=.2.'
  can0  RX - -  274   [8]  01 00 00 41 00 04 02 00   '...A....'
  can0  RX - -  482   [8]  00 10 00 00 00 00 00 00   '........'
  can0  RX - -  215   [8]  27 10 27 10 27 10 27 10   ''.'.'.'.'
  can0  RX - -  217   [8]  0E 0B 0E 08 00 00 D5 F7   '........'
  can0  RX - -  40A   [8]  C0 00 11 88 4A F1 04 31   '....J..1'
  can0  RX - -  215   [8]  27 10 27 10 27 10 27 10   ''.'.'.'.'
  can0  RX - -  45A   [8]  1E 8E 73 FF FF FF FF FF   '..s.....'
  can0  RX - -  45C   [8]  F0 00 FF FF FF FF 00 00   '........'
  can0  RX - -  228   [8]  01 20 01 F4 00 F0 00 00   '. ......'
  can0  RX - -  215   [8]  27 10 27 10 27 10 27 10   ''.'.'.'.'
  can0  RX - -  217   [8]  0E 0B 0E 08 00 00 D6 F6   '........'
  can0  RX - -  4F3   [8]  03 8C 00 70 02 66 00 60   '...p.f.`'
  can0  RX - -  215   [8]  27 10 27 10 27 10 27 10   ''.'.'.'.'
  can0  RX - -  228   [8]  01 20 01 F4 00 F0 00 00   '. ......'
  can0  RX - -  215   [8]  27 10 27 10 27 10 27 10   ''.'.'.'.'
  can0  RX - -  217   [8]  0E 0B 0E 08 00 00 D7 F5   '........'
  can0  RX - -  43F   [8]  1A 7F FB 48 00 00 3F C0   '...H..?.'
  can0  RX - -  45A   [8]  1E 8E 73 FF FF FF FF FF   '..s.....'
  can0  RX - -  45B   [8]  01 FF FF 00 00 00 2E 00   '........'
  can0  RX - -  45C   [8]  F0 00 FF FF FF FF 00 00   '........'
  can0  RX - -  215   [8]  27 10 27 10 27 10 27 10   ''.'.'.'.'
  can0  RX - -  40A   [8]  C0 01 00 00 8E B8 00 FF   '........'
  can0  RX - -  228   [8]  01 20 01 F4 00 F0 00 00   '. ......'
  can0  RX - -  09E   [8]  40 00 00 40 00 00 00 00   '@..@....'
  can0  RX - -  215   [8]  27 10 27 10 27 10 27 10   ''.'.'.'.'
  can0  RX - -  217   [8]  0E 0B 0E 08 00 00 D8 F4   '........'
  can0  RX - -  215   [8]  27 10 27 10 27 10 27 10   ''.'.'.'.'
  can0  RX - -  45A   [8]  1E 8E 73 FF FF FF FF FF   '..s.....'
  can0  RX - -  45C   [8]  F0 00 FF FF FF FF 00 00   '........'
  can0  RX - -  228   [8]  01 20 01 F4 00 F0 00 00   '. ......'
  can0  RX - -  436   [8]  08 00 00 24 00 00 00 00   '...$....'
  can0  RX - -  215   [8]  27 10 27 10 27 10 27 10   ''.'.'.'.'
  can0  RX - -  217   [8]  0E 0B 0E 08 00 00 D9 F3   '........'
  can0  RX - -  215   [8]  27 10 27 10 27 10 27 10   ''.'.'.'.'
  can0  RX - -  09A   [8]  00 C0 00 C0 88 00 00 00   '........'
  can0  RX - -  43F   [8]  1A 7F FB 48 00 00 3F C0   '...H..?.'
  can0  RX - -  45B   [8]  02 00 FF FF FF FF FF FF   '........'
  can0  RX - -  228   [8]  01 20 01 F4 00 F0 00 00   '. ......'
  can0  RX - -  48B   [8]  00 02 88 00 24 00 00 00   '....$...'
  can0  RX - -  050   [8]  01 00 00 02 AA 55 AA FD   '.....U..'
  can0  RX - -  091   [8]  C0 40 C0 03 3C 00 32 00   '.@..<.2.'
  can0  RX - -  274   [8]  01 00 00 41 00 04 02 00   '...A....'
  can0  RX - -  482   [8]  00 10 00 00 00 00 00 00   '........'
  can0  RX - -  215   [8]  27 10 27 10 27 10 27 10   ''.'.'.'.'
  can0  RX - -  217   [8]  0E 0B 0E 08 00 00 DA F2   '........'
  can0  RX - -  45A   [8]  1E 8E 73 FF FF FF FF FF   '..s.....'
  can0  RX - -  45C   [8]  F0 00 FF FF FF FF 00 00   '........'
  can0  RX - -  40A   [8]  BF 00 03 FF 00 00 FE 00   '........'
  can0  RX - -  215   [8]  27 10 27 10 27 10 27 10   ''.'.'.'.'
  can0  RX - -  228   [8]  01 20 01 F4 00 F0 00 00   '. ......'
  can0  RX - -  215   [8]  27 10 27 10 27 10 27 10   ''.'.'.'.'
  can0  RX - -  217   [8]  0E 0B 0E 08 00 00 DB F1   '........'
  can0  RX - -  4F3   [8]  03 8C 00 70 02 66 00 60   '...p.f.`'
  can0  RX - -  215   [8]  27 10 27 10 27 10 27 10   ''.'.'.'.'
  can0  RX - -  45A   [8]  1E 8E 73 FF FF FF FF FF   '..s.....'
  can0  RX - -  45C   [8]  F0 00 FF FF FF FF 00 00   '........'
  can0  RX - -  228   [8]  01 20 01 F4 00 F0 00 00   '. ......'
  can0  RX - -  215   [8]  27 10 27 10 27 10 27 10   ''.'.'.'.'
  can0  RX - -  217   [8]  0E 0B 0E 08 00 00 DC F0   '........'
  can0  RX - -  43F   [8]  1A 7F FB 48 00 00 3F C0   '...H..?.'
  can0  RX - -  45B   [8]  03 FF FF FF FF FF FF 00   '........'
  can0  RX - -  215   [8]  27 10 27 10 27 10 27 10   ''.'.'.'.'
  can0  RX - -  40A   [8]  C1 03 38 00 01 89 A4 00   '..8.....'
  can0  RX - -  228   [8]  01 20 01 F4 00 F0 00 00   '. ......'
  can0  RX - -  09E   [8]  40 00 00 40 00 00 00 00   '@..@....'
  can0  RX - -  215   [8]  27 10 27 10 27 10 27 10   ''.'.'.'.'
  can0  RX - -  217   [8]  0E 0B 0E 08 00 00 DD EF   '........'
  can0  RX - -  45A   [8]  1E 8E 73 FF FF FF FF FF   '..s.....'
  can0  RX - -  45C   [8]  F0 00 FF FF FF FF 00 00   '........'
  can0  RX - -  09F   [8]  70 64 02 10 C1 93 40 00   'pd....@.'
  can0  RX - -  215   [8]  27 10 27 10 27 10 27 10   ''.'.'.'.'
  can0  RX - -  228   [8]  01 20 01 F4 00 F0 00 00   '. ......'
  can0  RX - -  436   [8]  08 00 00 24 00 00 00 00   '...$....'
  can0  RX - -  215   [8]  27 10 27 10 27 10 27 10   ''.'.'.'.'
  can0  RX - -  217   [8]  0E 0B 0E 08 00 00 DE EE   '........'
  can0  RX - -  215   [8]  27 10 27 10 27 10 27 10   ''.'.'.'.'
  can0  RX - -  09A   [8]  00 C0 00 C0 88 00 00 00   '........'
  can0  RX - -  43F   [8]  1A 7F FB 48 00 00 3F C0   '...H..?.'
  can0  RX - -  45A   [8]  1E 8E 73 FF FF FF FF FF   '..s.....'
  can0  RX - -  228   [8]  01 20 01 F4 00 F0 00 00   '. ......'
  can0  RX - -  45B   [8]  04 00 00 00 00 00 2E 00   '........'
  can0  RX - -  45C   [8]  F0 00 FF FF FF FF 00 00   '........'
  can0  RX - -  48B   [8]  00 02 88 00 24 00 00 00   '....$...'
  can0  RX - -  050   [8]  01 00 00 02 AA 55 AA FD   '.....U..'
  can0  RX - -  091   [8]  C0 40 C0 04 3B 00 32 00   '.@..;.2.'
  can0  RX - -  274   [8]  01 00 00 41 00 04 02 00   '...A....'
  can0  RX - -  482   [8]  00 10 00 00 00 00 00 00   '........'
  can0  RX - -  215   [8]  27 10 27 10 27 10 27 10   ''.'.'.'.'
  can0  RX - -  217   [8]  0E 0B 0E 08 00 00 DF ED   '........'
  can0  RX - -  40A   [8]  C1 04 00 00 07 66 00 00   '.....f..'
  can0  RX - -  215   [8]  27 10 27 10 27 10 27 10   ''.'.'.'.'
  can0  RX - -  228   [8]  01 20 01 F4 00 F0 00 00   '. ......'
  can0  RX - -  215   [8]  27 10 27 10 27 10 27 10   ''.'.'.'.'
  can0  RX - -  217   [8]  0E 0B 0E 08 00 00 D0 FC   '........'
  can0  RX - -  45A   [8]  1E 8E 73 FF FF FF FF FF   '..s.....'
  can0  RX - -  45C   [8]  F0 00 FF FF FF FF 00 00   '........'
  can0  RX - -  4F3   [8]  03 8C 00 70 02 66 00 60   '...p.f.`'
  can0  RX - -  215   [8]  27 10 27 10 27 10 27 10   ''.'.'.'.'
  can0  RX - -  228   [8]  01 20 01 F4 00 F0 00 00   '. ......'
  can0  RX - -  215   [8]  27 10 27 10 27 10 27 10   ''.'.'.'.'
  can0  RX - -  217   [8]  0E 0B 0E 08 00 00 D1 FB   '........'
  can0  RX - -  43F   [8]  1A 7F FB 48 00 00 3F C0   '...H..?.'
  can0  RX - -  45B   [8]  05 00 00 FF FF 00 00 00   '........'
  can0  RX - -  215   [8]  27 10 27 10 27 10 27 10   ''.'.'.'.'
  can0  RX - -  45A   [8]  1E 8E 73 FF FF FF FF FF   '..s.....'
  can0  RX - -  45C   [8]  F0 00 FF FF FF FF 00 00   '........'
  can0  RX - -  40A   [8]  BF 01 11 00 00 00 00 00   '........'
  can0  RX - -  228   [8]  01 20 01 F4 00 F0 00 00   '. ......'
  can0  RX - -  09E   [8]  40 00 00 40 00 00 00 00   '@..@....'
  can0  RX - -  215   [8]  27 10 27 10 27 10 27 10   ''.'.'.'.'
  can0  RX - -  217   [8]  0E 0B 0E 08 00 00 D2 FA   '........'
  can0  RX - -  215   [8]  27 10 27 10 27 10 27 10   ''.'.'.'.'
  can0  RX - -  228   [8]  01 20 01 F4 00 F0 00 00   '. ......'
  can0  RX - -  436   [8]  08 00 00 24 00 00 00 00   '...$....'
  can0  RX - -  215   [8]  27 10 27 10 27 10 27 10   ''.'.'.'.'
  can0  RX - -  217   [8]  0E 0B 0E 08 00 00 D3 F9   '........'
  can0  RX - -  45A   [8]  1E 8E 73 FF FF FF FF FF   '..s.....'
  can0  RX - -  45C   [8]  F0 00 FF FF FF FF 00 00   '........'
  can0  RX - -  215   [8]  27 10 27 10 27 10 27 10   ''.'.'.'.'
  can0  RX - -  09A   [8]  00 C0 00 C0 88 00 00 00   '........'
  can0  RX - -  09B   [8]  20 00 00 00 20 00 00 00   ' ... ...'
  can0  RX - -  43D   [8]  80 10 80 40 08 00 00 0F   '...@....'
  can0  RX - -  228   [8]  01 20 01 F4 00 F0 00 00   '. ......'
  can0  RX - -  43E   [8]  00 00 00 60 E0 40 08 20   '...`.@. '
  can0  RX - -  43F   [8]  1A 7F FB 48 00 00 3F C0   '...H..?.'
  can0  RX - -  45B   [8]  01 FF FF 00 00 00 2E 00   '........'
  can0  RX - -  48B   [8]  00 02 88 00 24 00 00 00   '....$...'
  can0  RX - -  050   [8]  01 00 00 02 AA 55 AA FD   '.....U..'
  can0  RX - -  091   [8]  C0 40 C0 05 3A 00 32 00   '.@..:.2.'
  can0  RX - -  274   [8]  01 00 00 41 00 04 02 00   '...A....'
  can0  RX - -  482   [8]  00 10 00 00 00 00 00 00   '........'
  can0  RX - -  215   [8]  27 10 27 10 27 10 27 10   ''.'.'.'.'
  can0  RX - -  217   [8]  0E 0B 0E 08 00 00 D4 F8   '........'
  can0  RX - -  40A   [8]  BF 02 20 00 00 00 00 01   '.. .....'
  can0  RX - -  215   [8]  27 10 27 10 27 10 27 10   ''.'.'.'.'
  can0  RX - -  45A   [8]  1E 8E 73 FF FF FF FF FF   '..s.....'
  can0  RX - -  45C   [8]  F0 00 FF FF FF FF 00 00   '........'
  can0  RX - -  228   [8]  01 20 01 F4 00 F0 00 00   '. ......'
  can0  RX - -  215   [8]  27 10 27 10 27 10 27 10   ''.'.'.'.'
  can0  RX - -  217   [8]  0E 0B 0E 08 00 00 D5 F7   '........'
  can0  RX - -  4F3   [8]  03 8C 00 70 02 66 00 60   '...p.f.`'
  can0  RX - -  215   [8]  27 10 27 10 27 10 27 10   ''.'.'.'.'
  can0  RX - -  228   [8]  01 20 01 F4 00 F0 00 00   '. ......'
  can0  RX - -  215   [8]  27 10 27 10 27 10 27 10   ''.'.'.'.'
  can0  RX - -  217   [8]  0E 0B 0E 08 00 00 D6 F6   '........'
  can0  RX - -  43F   [8]  1A 7F FB 4C 00 00 3F C0   '...L..?.'
  can0  RX - -  45A   [8]  1E 8E 73 FF FF FF FF FF   '..s.....'
  can0  RX - -  45B   [8]  02 00 FF FF FF FF FF FF   '........'
  can0  RX - -  45C   [8]  F0 00 FF FF FF FF 00 00   '........'
  can0  RX - -  215   [8]  27 10 27 10 27 10 27 10   ''.'.'.'.'
  can0  RX - -  40A   [8]  BF 03 10 00 00 00 00 00   '........'
  can0  RX - -  228   [8]  01 20 01 F4 00 F0 00 00   '. ......'
  can0  RX - -  09E   [8]  40 00 00 40 00 00 00 00   '@..@....'
  can0  RX - -  215   [8]  27 10 27 10 27 10 27 10   ''.'.'.'.'
  can0  RX - -  217   [8]  0E 0B 0E 08 00 00 D7 F5   '........'
  can0  RX - -  09F   [8]  70 64 02 10 C1 93 40 00   'pd....@.'
  can0  RX - -  215   [8]  27 10 27 10 27 10 27 10   ''.'.'.'.'
  can0  RX - -  45A   [8]  1E 8E 73 FF FF FF FF FF   '..s.....'
  can0  RX - -  45C   [8]  F0 00 FF FF FF FF 00 00   '........'
  can0  RX - -  228   [8]  01 20 01 F4 00 F0 00 00   '. ......'
  can0  RX - -  436   [8]  08 00 00 24 00 00 00 00   '...$....'
  can0  RX - -  215   [8]  27 10 27 10 27 10 27 10   ''.'.'.'.'
  can0  RX - -  217   [8]  0E 0B 0E 08 00 00 D8 F4   '........'
  can0  RX - -  215   [8]  27 10 27 10 27 10 27 10   ''.'.'.'.'
  can0  RX - -  09A   [8]  00 C0 00 C0 88 00 00 00   '........'
  can0  RX - -  43F   [8]  1A 7F FB 48 00 00 3F C0   '...H..?.'
  can0  RX - -  45B   [8]  03 FF FF FF FF FF FF 00   '........'
  can0  RX - -  228   [8]  01 20 01 F4 00 F0 00 00   '. ......'
  can0  RX - -  48B   [8]  00 02 88 00 24 00 00 00   '....$...'
  can0  RX - -  050   [8]  01 00 00 02 AA 55 AA FD   '.....U..'
  can0  RX - -  091   [8]  C0 40 C0 06 39 00 32 00   '.@..9.2.'
  can0  RX - -  274   [8]  01 00 00 41 00 04 02 00   '...A....'
  can0  RX - -  482   [8]  00 10 00 00 00 00 00 00   '........'
  can0  RX - -  215   [8]  27 10 27 10 27 10 27 10   ''.'.'.'.'
  can0  RX - -  217   [8]  0E 0B 0E 08 00 00 D9 F3   '........'
  can0  RX - -  45A   [8]  1E 8E 73 FF FF FF FF FF   '..s.....'
  can0  RX - -  45C   [8]  F0 00 FF FF FF FF 00 00   '........'
  can0  RX - -  40A   [8]  BF 04 30 90 64 00 00 00   '..0.d...'
  can0  RX - -  215   [8]  27 10 27 10 27 10 27 10   ''.'.'.'.'
  can0  RX - -  228   [8]  01 20 01 F4 00 F0 00 00   '. ......'
  can0  RX - -  215   [8]  27 10 27 10 27 10 27 10   ''.'.'.'.'
  can0  RX - -  217   [8]  0E 0B 0E 08 00 00 DA F2   '........'
  can0  RX - -  4F3   [8]  03 8C 00 70 02 66 00 60   '...p.f.`'
  can0  RX - -  215   [8]  27 10 27 10 27 10 27 10   ''.'.'.'.'
  can0  RX - -  45A   [8]  1E 8E 73 FF FF FF FF FF   '..s.....'
  can0  RX - -  45C   [8]  F0 00 FF FF FF FF 00 00   '........'
  can0  RX - -  228   [8]  01 20 01 F4 00 F0 00 00   '. ......'
  can0  RX - -  215   [8]  27 10 27 10 27 10 27 10   ''.'.'.'.'
  can0  RX - -  217   [8]  0E 0B 0E 08 00 00 DB F1   '........'
  can0  RX - -  43F   [8]  1A 7F FB 48 00 00 3F C0   '...H..?.'
  can0  RX - -  45B   [8]  04 00 00 00 00 00 2E 00   '........'
  can0  RX - -  215   [8]  27 10 27 10 27 10 27 10   ''.'.'.'.'
  can0  RX - -  40A   [8]  BF 05 10 00 00 00 00 00   '........'
  can0  RX - -  228   [8]  01 20 01 F4 00 F0 00 00   '. ......'
  can0  RX - -  09E   [8]  40 00 00 40 00 00 00 00   '@..@....'
  can0  RX - -  215   [8]  27 10 27 10 27 10 27 10   ''.'.'.'.'
  can0  RX - -  217   [8]  0E 0B 0E 08 00 00 DC F0   '........'
  can0  RX - -  45A   [8]  1E 8E 73 FF FF FF FF FF   '..s.....'
  can0  RX - -  45C   [8]  F0 00 FF FF FF FF 00 00   '........'
  can0  RX - -  215   [8]  27 10 27 10 27 10 27 10   ''.'.'.'.'
  can0  RX - -  228   [8]  01 20 01 F4 00 F0 00 00   '. ......'
  can0  RX - -  436   [8]  08 00 00 24 00 00 00 00   '...$....'
  can0  RX - -  215   [8]  27 10 27 10 27 10 27 10   ''.'.'.'.'
  can0  RX - -  217   [8]  0E 0B 0E 08 00 00 DD EF   '........'
  can0  RX - -  215   [8]  27 10 27 10 27 10 27 10   ''.'.'.'.'
  can0  RX - -  09A   [8]  00 C0 00 C0 88 00 00 00   '........'
  can0  RX - -  43F   [8]  1A 7F FB 48 00 00 3F C0   '...H..?.'
  can0  RX - -  45A   [8]  1E 8E 73 FF FF FF FF FF   '..s.....'
  can0  RX - -  228   [8]  01 20 01 F4 00 F0 00 00   '. ......'
  can0  RX - -  45B   [8]  05 00 00 FF FF 00 00 00   '........'
  can0  RX - -  45C   [8]  F0 00 FF FF FF FF 00 00   '........'
  can0  RX - -  48B   [8]  00 02 88 00 24 00 00 00   '....$...'
  can0  RX - -  050   [8]  01 00 00 02 AA 55 AA FD   '.....U..'
  can0  RX - -  091   [8]  C0 40 C0 07 38 00 32 00   '.@..8.2.'
  can0  RX - -  274   [8]  01 00 00 41 00 04 02 00   '...A....'
  can0  RX - -  482   [8]  00 10 00 00 00 00 00 00   '........'
  can0  RX - -  215   [8]  27 10 27 10 27 10 27 10   ''.'.'.'.'
  can0  RX - -  217   [8]  0E 0B 0E 08 00 00 DE EE   '........'
  can0  RX - -  40A   [8]  BF 06 11 00 00 10 00 00   '........'
  can0  RX - -  215   [8]  27 10 27 10 27 10 27 10   ''.'.'.'.'
  can0  RX - -  228   [8]  01 20 01 F4 00 F0 00 00   '. ......'
  can0  RX - -  215   [8]  27 10 27 10 27 10 27 10   ''.'.'.'.'
  can0  RX - -  217   [8]  0E 0B 0E 08 00 00 DF ED   '........'
  can0  RX - -  45A   [8]  1E 8E 73 FF FF FF FF FF   '..s.....'
  can0  RX - -  45C   [8]  F0 00 FF FF FF FF 00 00   '........'
  can0  RX - -  4F3   [8]  03 8C 00 70 02 66 00 60   '...p.f.`'
  can0  RX - -  215   [8]  27 10 27 10 27 10 27 10   ''.'.'.'.'
  can0  RX - -  228   [8]  01 20 01 F4 00 F0 00 00   '. ......'
  can0  RX - -  215   [8]  27 10 27 10 27 10 27 10   ''.'.'.'.'
  can0  RX - -  217   [8]  0E 0B 0E 08 00 00 D0 FC   '........'
  can0  RX - -  43F   [8]  1A 7F FB 48 00 00 3F C0   '...H..?.'
  can0  RX - -  45B   [8]  01 FF FF 00 00 00 2E 00   '........'
  can0  RX - -  215   [8]  27 10 27 10 27 10 27 10   ''.'.'.'.'
  can0  RX - -  45A   [8]  1E 8E 73 FF FF FF FF FF   '..s.....'
  can0  RX - -  45C   [8]  F0 00 FF FF FF FF 00 00   '........'
  can0  RX - -  40A   [8]  BF 07 00 00 00 10 00 00   '........'
  can0  RX - -  228   [8]  01 20 01 F4 00 F0 00 00   '. ......'
  can0  RX - -  09E   [8]  40 00 00 40 00 00 00 00   '@..@....'
  can0  RX - -  215   [8]  27 10 27 10 27 10 27 10   ''.'.'.'.'
  can0  RX - -  217   [8]  0E 0B 0E 08 00 00 D1 FB   '........'
  can0  RX - -  09F   [8]  70 64 02 10 C1 93 40 00   'pd....@.'
  can0  RX - -  215   [8]  27 10 27 10 27 10 27 10   ''.'.'.'.'
  can0  RX - -  228   [8]  01 20 01 F4 00 F0 00 00   '. ......'
  can0  RX - -  436   [8]  08 00 00 24 00 00 00 00   '...$....'
  can0  RX - -  215   [8]  27 10 27 10 27 10 27 10   ''.'.'.'.'
  can0  RX - -  217   [8]  0E 0B 0E 08 00 00 D2 FA   '........'
  can0  RX - -  45A   [8]  1E 8E 73 FF FF FF FF FF   '..s.....'
  can0  RX - -  45C   [8]  F0 00 FF FF FF FF 00 00   '........'
  can0  RX - -  215   [8]  27 10 27 10 27 10 27 10   ''.'.'.'.'
  can0  RX - -  09A   [8]  00 C0 00 C0 88 00 00 00   '........'
  can0  RX - -  43F   [8]  1A 7F FB 48 00 00 3F C0   '...H..?.'
  can0  RX - -  45B   [8]  02 00 FF FF FF FF FF FF   '........'
  can0  RX - -  228   [8]  01 20 01 F4 00 F0 00 00   '. ......'
  can0  RX - -  48B   [8]  00 02 88 00 24 00 00 00   '....$...'
  can0  RX - -  050   [8]  01 00 00 02 AA 55 AA FD   '.....U..'
  can0  RX - -  091   [8]  C0 40 C0 08 37 00 32 00   '.@..7.2.'
  can0  RX - -  274   [8]  01 00 00 41 00 04 02 00   '...A....'
  can0  RX - -  482   [8]  00 10 00 00 00 00 00 00   '........'
  can0  RX - -  215   [8]  27 10 27 10 27 10 27 10   ''.'.'.'.'
  can0  RX - -  217   [8]  0E 0B 0E 08 00 00 D3 F9   '........'
  can0  RX - -  40A   [8]  BF 08 52 22 00 33 77 00   '..R".3w.'
  can0  RX - -  215   [8]  27 10 27 10 27 10 27 10   ''.'.'.'.'
  can0  RX - -  45A   [8]  1E 8E 73 FF FF FF FF FF   '..s.....'
  can0  RX - -  45C   [8]  F0 00 FF FF FF FF 00 00   '........'
  can0  RX - -  228   [8]  01 20 01 F4 00 F0 00 00   '. ......'
  can0  RX - -  215   [8]  27 10 27 10 27 10 27 10   ''.'.'.'.'
  can0  RX - -  217   [8]  0E 0B 0E 08 00 00 D4 F8   '........'
  can0  RX - -  4F3   [8]  03 8C 00 70 02 66 00 60   '...p.f.`'
  can0  RX - -  215   [8]  27 10 27 10 27 10 27 10   ''.'.'.'.'
  can0  RX - -  228   [8]  01 20 01 F4 00 F0 00 00   '. ......'
  can0  RX - -  215   [8]  27 10 27 10 27 10 27 10   ''.'.'.'.'
  can0  RX - -  217   [8]  0E 0B 0E 08 00 00 D5 F7   '........'
  can0  RX - -  43F   [8]  1A 7F FB 48 00 00 3F C0   '...H..?.'
  can0  RX - -  45A   [8]  1E 8E 73 FF FF FF FF FF   '..s.....'
  can0  RX - -  45B   [8]  03 FF FF FF FF FF FF 00   '........'
  can0  RX - -  45C   [8]  F0 00 FF FF FF FF 00 00   '........'
  can0  RX - -  215   [8]  27 10 27 10 27 10 27 10   ''.'.'.'.'
  can0  RX - -  40A   [8]  BF 09 11 00 00 31 10 00   '.....1..'
  can0  RX - -  228   [8]  01 20 01 F4 00 F0 00 00   '. ......'
  can0  RX - -  09E   [8]  40 00 00 40 00 00 00 00   '@..@....'
  can0  RX - -  215   [8]  27 10 27 10 27 10 27 10   ''.'.'.'.'
  can0  RX - -  217   [8]  0E 0B 0E 08 00 00 D6 F6   '........'
  can0  RX - -  215   [8]  27 10 27 10 27 10 27 10   ''.'.'.'.'
  can0  RX - -  45A   [8]  1E 8E 73 FF FF FF FF FF   '..s.....'
  can0  RX - -  45C   [8]  F0 00 FF FF FF FF 00 00   '........'
  can0  RX - -  228   [8]  01 20 01 F4 00 F0 00 00   '. ......'
  can0  RX - -  436   [8]  08 00 00 24 00 00 00 00   '...$....'
  can0  RX - -  215   [8]  27 10 27 10 27 10 27 10   ''.'.'.'.'
  can0  RX - -  217   [8]  0E 0B 0E 08 00 00 D7 F5   '........'
  can0  RX - -  215   [8]  27 10 27 10 27 10 27 10   ''.'.'.'.'
  can0  RX - -  09A   [8]  00 C0 00 C0 88 00 00 00   '........'
  can0  RX - -  43F   [8]  1A 7F FB 48 00 00 3F C0   '...H..?.'
  can0  RX - -  45B   [8]  04 00 00 00 00 00 2E 00   '........'
  can0  RX - -  228   [8]  01 20 01 F4 00 F0 00 00   '. ......'
  can0  RX - -  48B   [8]  00 02 88 00 24 00 00 00   '....$...'
  can0  RX - -  050   [8]  01 00 00 02 AA 55 AA FD   '.....U..'
  can0  RX - -  091   [8]  C0 40 C0 09 36 00 32 00   '.@..6.2.'
  can0  RX - -  274   [8]  01 00 00 41 00 04 02 00   '...A....'
  can0  RX - -  482   [8]  00 10 00 00 00 00 00 00   '........'
  can0  RX - -  215   [8]  27 10 27 10 27 10 27 10   ''.'.'.'.'
  can0  RX - -  217   [8]  0E 0B 0E 08 00 00 D8 F4   '........'
  can0  RX - -  45A   [8]  1E 8E 73 FF FF FF FF FF   '..s.....'
  can0  RX - -  45C   [8]  F0 00 FF FF FF FF 00 00   '........'
  can0  RX - -  40A   [8]  BF 10 10 00 00 00 00 00   '........'
  can0  RX - -  215   [8]  27 10 27 10 27 10 27 10   ''.'.'.'.'
  can0  RX - -  228   [8]  01 20 01 F4 00 F0 00 00   '. ......'
  can0  RX - -  215   [8]  27 10 27 10 27 10 27 10   ''.'.'.'.'
  can0  RX - -  217   [8]  0E 0B 0E 08 00 00 D9 F3   '........'
  can0  RX - -  4F3   [8]  03 8C 00 70 02 66 00 60   '...p.f.`'
  can0  RX - -  215   [8]  27 10 27 10 27 10 27 10   ''.'.'.'.'
  can0  RX - -  45A   [8]  1E 8E 73 FF FF FF FF FF   '..s.....'
  can0  RX - -  45C   [8]  F0 00 FF FF FF FF 00 00   '........'
  can0  RX - -  228   [8]  01 20 01 F4 00 F0 00 00   '. ......'
  can0  RX - -  215   [8]  27 10 27 10 27 10 27 10   ''.'.'.'.'
  can0  RX - -  217   [8]  0E 0B 0E 08 00 00 DA F2   '........'
  can0  RX - -  43F   [8]  1A 7F FB 48 00 00 3F C0   '...H..?.'
  can0  RX - -  45B   [8]  05 00 00 FF FF 00 00 00   '........'
  can0  RX - -  215   [8]  27 10 27 10 27 10 27 10   ''.'.'.'.'
  can0  RX - -  40A   [8]  BF 11 10 00 00 00 00 00   '........'
  can0  RX - -  228   [8]  01 20 01 F4 00 F0 00 00   '. ......'
  can0  RX - -  09E   [8]  40 00 00 40 00 00 00 00   '@..@....'
  can0  RX - -  215   [8]  27 10 27 10 27 10 27 10   ''.'.'.'.'
  can0  RX - -  217   [8]  0E 0B 0E 08 00 00 DB F1   '........'
  can0  RX - -  45A   [8]  1E 8E 73 FF FF FF FF FF   '..s.....'
  can0  RX - -  45C   [8]  F0 00 FF FF FF FF 00 00   '........'
